
10:33:56.54000
10:33:56.54300
10:33:56.54700
10:33:56.54900
10:33:56.55300
10:33:56.55500
10:33:56.55800
10:33:56.56600
10:33:59.963 设备接收:02 03 0C 00 00 00 00 00 00 00 00 00 00 00 00 D0 71
10:33:59.972 设备发送:02 03 05 A8 00 06 44 D7
10:34:04.005 设备发送:01 10 09 00 00 01 02 00 02 BE 91
10:34:04.196 设备发送:01 10 09 00 00 01 02 00 02 BE 91
10:34:04.422 设备发送:01 10 09 00 00 01 02 00 02 BE 91
10:34:04.989 设备接收:02 03 0C 00 00 00 00 00 00 00 00 00 00 00 00 D0 71 FB B5 83 00 01 02 55 01 10 09 00 00 01 02 55
10:34:05.003 设备发送:02 03 05 AE 00 06 A4 D6
10:34:10.018 设备接收:02 03 0C 00 00 00 00 00 00 00 00 00 00 00 00 D0 71
10:34:10.033 设备发送:02 03 04 2B 00 01 F5 01
10:34:15.038 设备接收:02 03 02 01 CB BC 43
10:34:15.054 设备发送:02 03 04 20 00 01 84 C3
10:34:20.046 设备接收:02 03 02 00 26 7D 9E
10:34:20.061 设备发送:02 03 04 05 00 01 95 08
10:34:25.071 设备接收:02 03 02 00 00 FC 44
10:34:25.087 设备发送:03 03 04 84 00 04 04 F2
10:34:30.081 设备接收:03 03 08 13 8B 04 76 00 02 04 78 8F 13
10:34:30.097 设备发送:03 03 04 8D 00 05 15 30
10:34:34.346 设备发送:01 10 11 04 00 01 02 00 00 A6 D5
10:34:34.564 设备发送:01 10 11 04 00 01 02 00 00 A6 D5
10:34:35.117 设备接收:03 03 0A 09 39 06 4C 00 00 00 00 00 00 C0 64 01 10 11 04 00 01 45 34 01 10 11 04 00 01 45 34 01 10 11 04 00 01 45 34
10:34:35.138 设备发送:03 03 04 98 00 05 04 F4
10:34:40.148 设备接收:03 03 0A 09 3B 06 4F 00 00 00 00 00 00 EA 04
10:34:40.164 设备发送:03 03 04 A3 00 05 75 39
10:34:45.169 设备接收:03 03 0A 09 40 06 56 00 00 00 00 00 00 74 37
10:34:45.185 设备发送:03 03 06 84 00 04 05 4A
10:34:50.174 设备接收:03 03 08 00 00 06 80 00 03 60 5E C6 2F
10:34:50.184 设备发送:03 03 04 04 00 01 C5 19

