
12:49:53.228 设备发送:01 03 04 98 00 05 05 16
12:49:58.248 设备接收:01 03 0A 08 ED 2B 6C 00 00 00 00 00 00 DB A5
12:49:58.263 设备发送:01 03 04 A3 00 05 74 DB
12:50:03.263 设备接收:01 03 0A 09 05 2B 5A 00 00 00 00 00 00 72 67
12:50:03.279 设备发送:01 03 06 84 00 04 04 A8
12:50:08.273 设备接收:01 03 08 00 00 5B 72 00 13 37 6C 47 2F
12:50:08.290 设备发送:01 03 04 04 00 01 C4 FB
12:50:13.305 设备接收:01 03 02 00 02 39 85
12:50:13.321 设备发送:01 03 05 84 00 0F 45 2B
12:50:18.318 设备接收:01 03 1E 19 D3 06 69 04 3D 19 DB 06 4A 04 2A 19 C2 06 50 04 2A 1A 11 03 16 02 0F 1C E3 06 5B 04 B3 80 D7
12:50:18.333 设备发送:01 03 05 93 00 0F F5 2F
12:50:23.336 设备接收:01 03 1E 1C C4 03 4A 02 6C 1D 07 03 3A 02 66 1C A6 03 34 02 59 1C 91 03 48 02 66 1C D4 03 30 02 5A 68 9C
12:50:23.351 设备发送:01 03 05 A2 00 0F A4 E0
12:50:28.362 设备接收:01 03 1E 00 00 00 00 00 00 00 00 00 00 00 00 00 00 00 00 00 00 00 00 00 00 00 00 00 00 00 00 00 00 D8 BA
12:50:28.378 设备发送:01 03 05 B1 00 03 55 20
12:50:33.390 设备接收:01 03 06 00 00 00 00 00 00 21 75
12:50:33.406 设备发送:01 03 04 2B 00 01 F5 32
12:50:38.415 设备接收:01 03 02 01 B2 39 A1
12:50:38.430 设备发送:01 03 04 20 00 01 84 F0
12:50:43.407 设备接收:01 03 02 00 3B F9 97
12:50:43.423 设备发送:01 03 04 05 00 01 95 3B
12:50:48.446 设备接收:01 03 02 00 00 B8 44
12:50:48.462 设备发送:02 03 04 84 00 04 05 23
12:50:53.447 设备接收:02 03 08 13 8B 0B 0C FF BD 0B 10 57 34
12:50:53.478 设备发送:02 03 04 8D 00 05 14 E1
12:50:58.481 设备接收:02 03 0A 09 1B 0F AB 00 00 00 00 00 00 15 20
12:50:58.497 设备发送:02 03 04 98 00 05 05 25
12:51:03.477 设备接收:02 03 0A 09 18 0F F8 00 00 00 00 00 00 62 D5
12:51:03.492 设备发送:02 03 04 A3 00 05 74 E8
12:51:08.498 设备接收:02 03 0A 09 10 10 26 00 00 00 00 00 00 7A 54
12:51:08.530 设备发送:02 03 06 84 00 04 04 9B
12:51:13.556 设备接收:02 03 08 00 00 1F 28 00 07 1A FE C3 DB
12:51:13.571 设备发送:02 03 04 04 00 01 C4 C8
12:51:18.565 设备接收:02 03 02 00 02 7D 85
12:51:18.581 设备发送:01 03 05 84 00 06 85 2D
12:51:23.561 设备接收:01 03 0C 19 86 07 44 04 BF 19 B4 07 20 04 B0 B5 E1
12:51:23.577 设备发送:01 03 05 8A 00 06 E4 EE
12:51:28.583 设备接收:01 03 0C 19 95 07 26 04 AF 19 E6 03 81 02 52 24 31
12:51:28.599 设备发送:01 03 05 90 00 06 C5 29
12:51:33.607 设备接收:01 03 0C 1C E2 07 16 05 3D 1C EF 03 92 02 A5 D2 9B
12:51:33.619 设备发送:01 03 05 96 00 06 25 28
12:51:38.612 设备接收:01 03 0C 1D 07 03 86 02 9E 1C 57 03 8B 02 92 66 62
12:51:38.656 设备发送:01 03 05 9C 00 06 05 2A
12:51:43.648 设备接收:01 03 0C 1C 93 03 96 02 A0 1C 85 03 88 02 94 A9 80
12:51:43.662 设备发送:02 03 05 A2 00 06 64 D5
12:51:48.680 设备接收:02 03 0C 00 00 00 00 00 00 00 00 00 00 00 00 D0 71
12:51:48.696 设备发送:02 03 05 A8 00 06 44 D7
12:51:53.718 设备接收:02 03 0C 00 00 00 00 00 00 00 00 00 00 00 00 D0 71
12:51:53.788 设备发送:02 03 05 AE 00 06 A4 D6
12:51:58.701 设备接收:02 03 0C 00 00 00 00 00 00 00 00 00 00 00 00 D0 71
12:51:58.716 设备发送:02 03 04 2B 00 01 F5 01
12:52:03.715 设备接收:02 03 02 01 77 BD F2
12:52:03.731 设备发送:02 03 04 20 00 01 84 C3
12:52:08.748 设备接收:02 03 02 00 2C FD 99
12:52:08.764 设备发送:02 03 04 05 00 01 95 08
12:52:13.758 设备接收:02 03 02 00 00 FC 44
12:52:13.881 设备发送:03 03 04 84 00 04 04 F2
12:52:18.783 设备接收:03 03 08 13 8B 04 FC FF F5 04 FE 16 88
12:52:18.798 设备发送:03 03 04 8D 00 05 15 30
12:52:23.825 设备接收:03 03 0A 09 28 07 25 00 00 00 00 00 00 38 FE
12:52:23.841 设备发送:03 03 04 98 00 05 04 F4
12:52:28.812 设备接收:03 03 0A 09 2A 07 3A 00 00 00 00 00 00 CF 5F
12:52:28.828 设备发送:03 03 04 A3 00 05 75 39
12:52:33.833 设备接收:03 03 0A 09 31 07 5B 00 00 00 00 00 00 01 69
12:52:33.864 设备发送:03 03 06 84 00 04 05 4A
12:52:38.846 设备接收:03 03 08 00 00 0E A6 00 03 48 B3 10 ED
12:52:38.877 设备发送:03 03 04 04 00 01 C5 19
12:52:43.871 设备接收:03 03 02 00 02 40 45
12:52:43.917 设备发送:03 03 05 84 00 06 84 CF
12:52:48.928 设备接收:03 03 0C 1C 75 03 9A 02 9F 1C C9 03 87 02 99 18 C1
12:52:48.943 设备发送:03 03 05 8A 00 06 E5 0C
12:52:53.937 设备接收:03 03 0C 00 0A 00 00 00 00 00 00 00 00 00 00 30 A9
12:52:53.952 设备发送:03 03 05 90 00 06 C4 CB
12:52:58.945 设备接收:03 03 0C 00 00 00 00 00 00 00 00 00 00 00 00 11 71
12:52:58.961 设备发送:03 03 05 96 00 06 24 CA
12:53:03.983 设备接收:03 03 0C 00 00 00 00 00 00 00 00 00 00 00 00 11 71
12:53:03.998 设备发送:03 03 05 9C 00 06 04 C8
12:53:08.997 设备接收:03 03 0C 00 00 00 00 00 00 00 00 00 00 00 00 11 71
12:53:09.014 设备发送:03 03 05 A2 00 06 65 04
12:53:13.990 设备接收:03 03 0C 00 00 00 00 00 00 00 00 00 00 00 00 11 71
12:53:14.038 设备发送:03 03 05 A8 00 06 45 06
12:53:19.035 设备接收:03 03 0C 00 00 00 00 00 00 00 00 00 00 00 00 11 71
12:53:19.051 设备发送:03 03 05 AE 00 06 A5 07
12:53:24.047 设备接收:03 03 0C 00 00 00 00 00 00 00 00 00 00 00 00 11 71
12:53:24.078 设备发送:03 03 04 2B 00 01 F4 D0
12:53:29.085 设备接收:03 03 02 01 EC C1 99
12:53:29.100 设备发送:03 03 04 20 00 01 85 12
12:53:34.068 设备接收:03 03 02 00 19 00 4E
12:53:34.116 设备发送:03 03 04 05 00 01 94 D9
12:53:39.096 设备接收:03 03 02 00 00 C1 84
12:53:39.127 设备发送:04 03 04 84 00 04 05 45
12:53:44.127 设备接收:04 03 08 13 8B 0D 4D FF D8 0D 4D A7 93
12:53:44.143 设备发送:04 03 04 8D 00 05 14 87
12:53:49.140 设备接收:04 03 0A 09 10 13 97 00 00 00 00 00 00 92 8C
12:53:49.156 设备发送:04 03 04 98 00 05 05 43
12:53:54.157 设备接收:04 03 0A 09 09 13 A5 00 00 00 00 00 00 26 DF
12:53:54.172 设备发送:04 03 04 A3 00 05 74 8E
12:53:59.181 设备接收:04 03 0A 09 16 13 37 00 00 00 00 00 00 19 26
12:53:59.196 设备发送:04 03 06 84 00 04 04 FD
12:54:04.208 设备接收:04 03 08 00 00 1E BA 00 07 EC CF E3 2B
12:54:04.223 设备发送:04 03 04 04 00 01 C4 AE
12:54:09.243 设备接收:04 03 02 00 02 F5 85
12:54:09.259 设备发送:04 03 05 84 00 0F 45 7E
12:54:14.252 设备接收:04 03 1E 03 EB 00 06 00 00 03 DD 00 00 00 00 18 58 07 19 04 6C 16 A0 03 94 02 12 03 EA 00 00 00 00 97 AA
12:54:14.267 设备发送:04 03 05 93 00 0F F5 7A
12:54:19.273 设备接收:04 03 1E 19 96 03 66 02 3A 19 71 03 86 02 4B 1B 6E 03 76 02 6E 03 ED 00 02 00 00 03 EB 00 00 00 00 48 EC
12:54:19.289 设备发送:04 03 05 A2 00 0F A4 B5
12:54:24.305 设备接收:04 03 1E 00 08 00 00 00 00 00 08 00 01 00 00 00 00 00 00 00 00 00 00 00 00 00 00 00 00 00 00 00 00 73 C2
12:54:24.321 设备发送:04 03 05 B1 00 03 55 75
12:54:29.310 设备接收:04 03 06 00 00 00 00 00 00 1E 25
12:54:29.341 设备发送:04 03 04 2B 00 01 F5 67
12:54:34.346 设备接收:04 03 02 02 60 75 0C
12:54:34.362 设备发送:04 03 04 20 00 01 84 A5
12:54:39.339 设备接收:04 03 02 00 23 35 9D
12:54:39.355 设备发送:04 03 04 05 00 01 95 6E
12:54:44.379 设备接收:04 03 02 00 00 74 44
12:54:44.395 设备发送:05 03 04 84 00 04 04 94
12:54:49.403 设备接收:05 03 08 13 8B 16 6D 00 1A 16 6D BB 83
12:54:49.418 设备发送:05 03 04 8D 00 05 15 56
12:54:54.398 设备接收:05 03 0A 09 1C 1F F3 00 00 00 00 00 00 E0 9E
12:54:54.414 设备发送:05 03 04 98 00 05 04 92
12:54:59.435 设备接收:05 03 0A 09 0E 1F 5F 00 00 00 00 00 00 58 34
12:54:59.466 设备发送:05 03 04 A3 00 05 75 5F
12:55:04.449 设备接收:05 03 0A 09 1D 1E 92 00 00 00 00 00 00 5C 04
12:55:04.465 设备发送:05 03 06 84 00 04 05 2C
12:55:09.481 设备接收:05 03 08 00 00 3B 7C 00 0D CC 82 91 04
12:55:09.558 设备发送:05 03 04 04 00 01 C5 7F
12:55:14.509 设备接收:05 03 02 00 02 C8 45
12:55:14.525 设备发送:05 03 05 84 00 0F 44 AF
12:55:19.504 设备接收:05 03 1E 04 2F 00 00 00 00 04 31 00 00 00 00 04 24 00 05 00 00 1D 89 06 A4 05 05 16 F3 06 C8 03 FC 8A 9C
12:55:19.520 设备发送:05 03 05 93 00 0F F4 AB
12:55:24.544 设备接收:05 03 1E 16 FC 06 E6 04 0F 15 F9 07 0B 03 F6 1C 83 06 F4 05 13 04 2D 00 05 00 00 04 28 00 02 00 00 97 3C
12:55:24.559 设备发送:05 03 05 A2 00 0F A5 64
12:55:29.540 设备接收:05 03 1E 00 00 00 00 00 00 00 00 00 00 00 00 00 00 00 00 00 00 00 00 00 00 00 00 00 00 00 00 00 00 69 7B
12:55:29.556 设备发送:05 03 05 B1 00 03 54 A4
12:55:34.585 设备接收:05 03 06 00 00 00 00 00 00 13 B5
12:55:34.600 设备发送:05 03 04 2B 00 01 F4 B6
12:55:39.599 设备接收:05 03 02 01 E6 C9 9E
12:55:39.615 设备发送:05 03 04 20 00 01 85 74
12:55:44.616 设备接收:05 03 02 00 2C 48 59
12:55:44.632 设备发送:05 03 04 05 00 01 94 BF
12:55:49.626 设备接收:05 03 02 00 00 49 84
12:55:49.641 设备发送:06 03 04 84 00 04 04 A7
12:55:54.666 设备发送:06 03 04 84 00 04 04 A7
12:55:59.685 设备发送:06 03 04 84 00 04 04 A7
12:56:04.716 设备发送:06 03 04 8D 00 05 15 65
12:56:09.721 设备发送:06 03 04 8D 00 05 15 65
12:56:14.747 设备发送:06 03 04 8D 00 05 15 65
12:56:19.748 设备发送:06 03 04 98 00 05 04 A1
12:56:24.768 设备发送:06 03 04 98 00 05 04 A1
12:56:29.813 设备发送:06 03 04 98 00 05 04 A1
12:56:34.828 设备发送:06 03 04 A3 00 05 75 6C
12:56:39.857 设备发送:06 03 04 A3 00 05 75 6C
12:56:44.869 设备发送:06 03 04 A3 00 05 75 6C
12:56:49.871 设备发送:06 03 06 84 00 04 05 1F
12:56:54.908 设备发送:06 03 06 84 00 04 05 1F
12:56:59.936 设备发送:06 03 06 84 00 04 05 1F
12:57:04.919 设备发送:06 03 04 04 00 01 C5 4C
12:57:09.957 设备发送:06 03 04 04 00 01 C5 4C
12:57:14.967 设备发送:06 03 04 04 00 01 C5 4C
12:57:19.997 设备发送:06 03 05 84 00 0F 44 9C
12:57:25.036 设备发送:06 03 05 84 00 0F 44 9C
12:57:30.022 设备发送:06 03 05 84 00 0F 44 9C
12:57:35.048 设备发送:06 03 05 93 00 0F F4 98
12:57:40.079 设备发送:06 03 05 93 00 0F F4 98
12:57:45.108 设备发送:06 03 05 93 00 0F F4 98
12:57:50.122 设备发送:06 03 05 A2 00 0F A5 57
12:57:55.132 设备发送:06 03 05 A2 00 0F A5 57
12:58:00.168 设备发送:06 03 05 A2 00 0F A5 57
12:58:05.182 设备发送:06 03 05 B1 00 03 54 97
12:58:10.181 设备发送:06 03 05 B1 00 03 54 97
12:58:15.235 设备发送:06 03 05 B1 00 03 54 97
12:58:20.230 设备发送:06 03 04 2B 00 01 F4 85
12:58:25.248 设备发送:06 03 04 2B 00 01 F4 85
12:58:30.275 设备发送:06 03 04 2B 00 01 F4 85
12:58:35.294 设备发送:06 03 04 20 00 01 85 47
12:58:40.328 设备发送:06 03 04 20 00 01 85 47
12:58:45.347 设备发送:06 03 04 20 00 01 85 47
12:58:50.348 设备发送:06 03 04 05 00 01 94 8C
12:58:55.360 设备发送:06 03 04 05 00 01 94 8C
12:59:00.387 设备发送:06 03 04 05 00 01 94 8C
12:59:05.416 设备发送:01 03 04 84 00 04 05 10
12:59:10.398 设备接收:01 03 08 13 87 17 35 FF 74 17 37 92 CD
12:59:10.445 设备发送:01 03 04 8D 00 05 14 D2
12:59:15.448 设备接收:01 03 0A 08 ED 22 B8 00 00 00 00 00 00 8F C2
12:59:15.464 设备发送:01 03 04 98 00 05 05 16
12:59:20.469 设备接收:01 03 0A 08 E6 21 E8 00 00 00 00 00 00 EC E2
12:59:20.485 设备发送:01 03 04 A3 00 05 74 DB
12:59:25.473 设备接收:01 03 0A 08 F8 21 5E 00 00 00 00 00 00 BA 89
12:59:25.488 设备发送:01 03 06 84 00 04 04 A8
12:59:30.494 设备接收:01 03 08 00 00 60 57 00 13 37 E9 CF C0
12:59:30.510 设备发送:01 03 04 04 00 01 C4 FB
12:59:35.523 设备接收:01 03 02 00 02 39 85
12:59:35.539 设备发送:01 03 05 84 00 0F 45 2B
12:59:40.543 设备接收:01 03 1E 19 82 04 EC 03 37 19 89 04 D1 03 26 19 99 04 D0 03 27 19 E9 02 59 01 8E 1C 91 04 D7 03 8A BC 0E
12:59:40.559 设备发送:01 03 05 93 00 0F F5 2F
12:59:45.549 设备接收:01 03 1E 1C 78 02 67 01 C0 1C B8 02 58 01 B9 1C A8 02 55 01 B6 1C 93 02 67 01 C1 1C AC 02 57 01 B7 20 A4
12:59:45.565 设备发送:01 03 05 A2 00 0F A4 E0
12:59:50.581 设备接收:01 03 1E 00 00 00 00 00 00 00 00 00 00 00 00 00 00 00 00 00 00 00 00 00 00 00 00 00 00 00 00 00 00 D8 BA
12:59:50.596 设备发送:01 03 05 B1 00 03 55 20
12:59:55.587 设备接收:01 03 06 00 00 00 00 00 00 21 75
12:59:55.603 设备发送:01 03 04 2B 00 01 F5 32
13:00:00.624 设备接收:01 03 02 01 B2 39 A1
13:00:00.639 设备发送:01 03 04 20 00 01 84 F0
13:00:05.624 设备接收:01 03 02 00 3C B8 55
13:00:05.640 设备发送:01 03 04 05 00 01 95 3B
13:00:10.648 设备接收:01 03 02 00 00 B8 44
13:00:10.668 设备发送:02 03 04 84 00 04 05 23
13:00:15.675 设备接收:02 03 08 13 87 06 F5 FF E6 06 F5 B2 F5
13:00:15.690 设备发送:02 03 04 8D 00 05 14 E1
13:00:20.675 设备接收:02 03 0A 09 04 0A 29 00 00 00 00 00 00 FB 27
13:00:20.691 设备发送:02 03 04 98 00 05 05 25
13:00:25.695 设备接收:02 03 0A 09 01 0A 15 00 00 00 00 00 00 38 74
13:00:25.742 设备发送:02 03 04 A3 00 05 74 E8
13:00:30.740 设备接收:02 03 0A 08 F8 0A 02 00 00 00 00 00 00 60 E4
13:00:30.756 设备发送:02 03 06 84 00 04 04 9B
13:00:35.768 设备发送:02 03 06 84 00 04 04 9B
13:00:40.761 设备接收:02 03 08 00 00 20 C1 00 07 1B 27 5B 09
13:00:40.784 设备发送:02 03 04 04 00 01 C4 C8
13:00:45.779 设备接收:02 03 02 00 02 7D 85
13:00:45.811 设备发送:01 03 05 84 00 06 85 2D
13:00:50.805 设备接收:01 03 0C 19 80 04 82 02 F1 19 88 04 67 02 E0 ED 25
13:00:50.821 设备发送:01 03 05 8A 00 06 E4 EE
13:00:55.805 设备接收:01 03 0C 19 98 04 61 02 DF 19 C1 02 27 01 6B 1C B6
13:00:55.868 设备发送:01 03 05 90 00 06 C5 29
13:01:00.861 设备接收:01 03 0C 1C BC 04 5A 03 34 1C A2 02 37 01 A0 97 B6
13:01:00.876 设备发送:01 03 05 96 00 06 25 28
13:01:05.855 设备接收:01 03 0C 1C 66 02 3B 01 9F 1C 2F 02 39 01 9A 0D FC
13:01:05.933 设备发送:01 03 05 9C 00 06 05 2A
13:01:10.885 设备接收:01 03 0C 1C 6A 02 46 01 A8 1C 83 02 3A 01 A0 A9 36
13:01:10.900 设备发送:02 03 05 A2 00 06 64 D5
13:01:15.914 设备接收:02 03 0C 00 00 00 00 00 00 00 00 00 00 00 00 D0 71
13:01:15.930 设备发送:02 03 05 A8 00 06 44 D7
13:01:20.940 设备接收:02 03 0C 00 00 00 00 00 00 00 00 00 00 00 00 D0 71 FF FF FF FF FF
13:01:20.955 设备发送:02 03 05 AE 00 06 A4 D6
13:01:25.943 设备接收:02 03 0C 00 00 00 00 00 00 00 00 00 00 00 00 D0 71
13:01:25.959 设备发送:02 03 04 2B 00 01 F5 01
13:01:30.951 设备接收:02 03 02 01 77 BD F2
13:01:30.983 设备发送:02 03 04 20 00 01 84 C3
13:01:35.995 设备接收:02 03 02 00 2D 3C 59
13:01:36.011 设备发送:02 03 04 05 00 01 95 08
13:01:41.020 设备接收:02 03 02 00 00 FC 44
13:01:41.035 设备发送:03 03 04 84 00 04 04 F2
13:01:46.035 设备接收:03 03 08 13 85 03 2D 00 01 03 30 F6 AF
13:01:46.051 设备发送:03 03 04 8D 00 05 15 30
13:01:51.062 设备接收:03 03 0A 09 09 04 8B 00 00 00 00 00 00 A3 70
13:01:51.078 设备发送:03 03 04 98 00 05 04 F4
13:01:56.081 设备接收:03 03 0A 09 0B 04 87 00 00 00 00 00 00 76 10
13:01:56.096 设备发送:03 03 04 A3 00 05 75 39
13:02:01.081 设备接收:03 03 0A 09 16 04 91 00 00 00 00 00 00 94 81
13:02:01.096 设备发送:03 03 06 84 00 04 05 4A
13:02:06.104 设备接收:03 03 08 00 00 0F 52 00 03 48 C4 E0 CF
13:02:06.120 设备发送:03 03 04 04 00 01 C5 19
13:02:11.160 设备发送:03 03 04 04 00 01 C5 19
13:02:16.146 设备接收:03 03 02 00 02 40 45 FF FF FF FF FF FF FF FF FF FF FF FF FF FF FF FF FF FF FF FF FF FF FF FF FF FF FF FF FF FF FF FF FF FF FF FF FF FF FF FF FF FF FF FF FF FF FF FF FF FF FF FF FF FF FF FF FF FF FF FF FF FF FF FF FF FF FF FF FF FF FF FF FF FF FF FF FF FF FF FF FF FF FF FF FF FF FF FF FF FF FF FF FF FF FF FF FF FF FF FF FF FF FF FF FF FF FF FF FF FF FF FF FF FF FF FF FF FF FF FF FF FF FF FF FF FF FF FF FF FF FF FF FF FF FF FF FF FF FF FF FF FF FF
13:02:16.176 设备发送:03 03 05 84 00 06 84 CF
13:02:21.172 设备接收:FF FF FF FF FF FF FF FF FF FF FF FF FF FF FF FF FF FF FF FF FF FF FF FF FF FF FF FF FF FF FF FF FF FF FF FF FF FF FF FF FF FF FF FF FF FF FF FF FF FF FF FF FF FF FF FF FF FF FF FF FF FF FF FF FF FF FF FF FF FF FF FF FF FF FF FF FF FF FF FF FF FF FF FF FF FF FF FF FF FF FF FF FF FF FF FF FF FF FF FF FF FF FF FF FF FF FF FF FF FF FF FF FF FF FF FF FF FF FF FF FF FF FF FF FF FF FF FF FF FF FF FF FF FF FF FF FF FF FF FF FF FF FF FF FF FF FF FF FF FF
13:02:21.188 设备发送:03 03 05 8A 00 06 E5 0C
13:02:26.187 设备接收:FF FF FF FF FF FF FF FF FF FF FF FF FF FF FF FF FF FF FF FF FF FF FF FF FF FF FF FF FF FF FF FF FF FF FF FF FF FF FF FF FF FF FF FF FF FF FF FF FF FF FF FF FF FF FF FF FF FF FF FF FF FF FF FF FF FF FF FF FF FF FF FF FF FF FF FF FF FF FF FF FF FF FF FF FF FF FF FF FF FF FF FF FF FF FF FF FF FF FF FF FF FF FF FF FF FF FF FF FF FF FF FF FF FF FF FF FF FF FF FF FF FF FF FF FF FF FF FF FF FF FF FF FF FF FF FF FF FF FF FF FF FF FF FF FF FF FF FF FF FF
13:02:26.203 设备发送:03 03 05 90 00 06 C4 CB
13:02:31.198 设备接收:FF FF FF FF FF FF FF FF FF FF FF FF FF FF FF FF FF FF FF FF FF FF FF FF FF FF FF FF FF FF FF FF FF FF FF FF FF FF FF FF FF FF FF FF FF FF FF FF FF FF FF FF FF FF FF FF FF FF FF FF FF FF FF FF FF FF FF FF FF FF FF FF FF FF FF FF FF FF FF FF FF FF FF FF FF FF FF FF FF FF FF FF FF FF FF FF FF FF FF FF FF FF FF FF FF FF FF FF FF FF FF FF FF FF FF FF FF FF FF FF FF FF FF FF FF FF FF FF FF FF FF FF FF FF FF FF FF FF FF FF FF FF FF FF FF FF FF FF FF FF
13:02:31.215 设备发送:03 03 05 96 00 06 24 CA
13:02:36.246 设备接收:FF FF FF FF FF FF FF FF FF FF FF FF FF FF FF FF FF FF FF FF FF FF FF FF FF FF FF FF FF FF FF FF FF FF FF FF FF FF FF FF FF FF FF FF FF FF FF FF FF FF FF FF FF FF FF FF FF FF FF FF FF FF FF FF FF FF FF FF FF FF FF FF FF FF FF FF FF FF FF FF FF FF FF FF FF FF FF FF FF FF FF FF FF FF FF FF FF FF FF FF FF FF FF FF FF FF FF FF FF FF FF FF FF FF FF FF FF FF FF FF FF FF FF FF FF FF FF FF FF FF FF FF FF FF FF FF FF FF FF FF FF FF FF FF FF FF FF FF FF FF
13:02:36.262 设备发送:03 03 05 9C 00 06 04 C8
13:02:41.243 设备接收:FF FF FF FF FF FF FF FF FF FF FF FF FF FF FF FF FF FF FF FF FF FF FF FF FF FF FF FF FF FF FF FF FF FF FF FF FF FF FF FF FF FF FF FF FF FF FF FF FF FF FF FF FF FF FF FF FF FF FF FF FF FF FF FF FF FF FF FF FF FF FF FF FF FF FF FF FF FF FF FF FF FF FF FF FF FF FF FF FF FF FF FF FF FF FF FF FF FF FF FF FF FF FF FF FF FF FF FF FF FF FF FF FF FF FF FF FF FF FF FF FF FF FF FF FF FF FF FF FF FF FF FF FF FF FF FF FF FF FF FF FF FF FF FF FF FF FF FF FF FF
13:02:41.259 设备发送:03 03 05 A2 00 06 65 04
13:02:46.280 设备接收:FF FF FF FF FF FF FF FF FF FF FF FF FF FF FF FF FF FF FF FF FF FF FF FF FF FF FF FF FF FF FF FF FF FF FF FF FF FF FF FF FF FF FF FF FF FF FF FF FF FF FF FF FF FF FF FF FF FF FF FF FF FF FF FF FF FF FF FF FF FF FF FF FF FF FF FF FF FF FF FF FF FF FF FF FF FF FF FF FF FF FF FF FF FF FF FF FF FF FF FF FF FF FF FF FF FF FF FF FF FF FF FF FF FF FF FF FF FF FF FF FF FF FF FF FF FF FF FF FF FF FF FF FF FF FF FF FF FF FF FF FF FF FF FF FF FF FF FF FF FF
13:02:46.295 设备发送:03 03 05 A8 00 06 45 06
13:02:51.279 设备接收:FF FF FF FF FF FF FF FF FF FF FF FF FF FF FF FF FF FF FF FF FF FF FF FF FF FF FF FF FF FF FF FF FF FF FF FF FF FF FF FF FF FF FF FF FF FF FF FF FF FF FF FF FF FF FF FF FF FF FF FF FF FF FF FF FF FF FF FF FF FF FF FF FF FF FF FF FF FF FF FF FF FF FF FF FF FF FF FF FF FF FF FF FF FF FF FF FF FF FF FF FF FF FF FF FF FF FF FF FF FF FF FF FF FF FF FF FF FF FF FF FF FF FF FF FF FF FF FF FF FF FF FF FF FF FF FF FF FF FF FF FF FF FF FF FF FF FF FF FF FF
13:02:51.326 设备发送:03 03 05 AE 00 06 A5 07
13:02:56.333 设备接收:FF FF FF FF FF FF FF FF FF FF FF FF FF FF FF FF FF FF FF FF FF FF FF FF FF FF FF FF FF FF FF FF FF FF FF FF FF FF FF FF FF FF FF FF FF FF FF FF FF FF FF FF FF FF FF FF FF FF FF FF FF FF FF FF FF FF FF FF FF FF FF FF FF FF FF FF FF FF FF FF FF FF FF FF FF FF FF FF FF FF FF FF FF FF FF FF FF FF FF FF FF FF FF FF FF FF FF FF FF FF FF FF FF FF FF FF FF FF FF FF FF FF FF FF FF FF FF FF FF FF FF FF FF FF FF FF FF FF FF FF FF FF FF FF FF FF FF FF FF FF
13:02:56.408 设备发送:03 03 04 2B 00 01 F4 D0
13:03:01.352 设备接收:FF FF FF FF FF FF FF FF FF FF FF FF FF FF FF FF FF FF FF FF FF FF FF FF FF FF FF FF FF FF FF FF FF FF FF FF FF FF FF FF FF FF FF FF FF FF FF FF FF FF FF FF FF FF FF FF FF FF FF FF FF FF FF FF FF FF FF FF FF FF FF FF FF FF FF FF FF FF FF FF FF FF FF FF FF FF FF FF FF FF FF FF FF FF FF FF FF FF FF FF FF FF FF FF FF FF FF FF FF FF FF FF FF FF FF FF FF FF FF FF FF FF FF FF FF FF FF FF FF FF FF FF FF FF FF FF FF FF FF FF FF FF FF FF FF FF FF FF FF FF
13:03:01.367 设备发送:03 03 04 20 00 01 85 12
13:03:06.349 设备接收:FF FF FF FF FF FF FF FF FF FF FF FF FF FF FF FF FF FF FF FF FF FF FF FF FF FF FF FF FF FF FF FF FF FF FF FF FF FF FF FF FF FF FF FF FF FF FF FF FF FF FF FF FF FF FF FF FF FF FF FF FF FF FF FF FF FF FF FF FF FF FF FF FF FF FF FF FF FF FF FF FF FF FF FF FF FF FF FF FF FF FF FF FF FF FF FF FF FF FF FF FF FF FF FF FF FF FF FF FF FF FF FF FF FF FF FF FF FF FF FF FF FF FF FF FF FF FF FF FF FF FF FF FF FF FF FF FF FF FF FF FF FF FF FF FF FF FF FF FF FF
13:03:06.364 设备发送:03 03 04 05 00 01 94 D9
13:03:11.381 设备接收:FF FF FF FF FF FF FF FF FF FF FF FF FF FF FF FF FF FF FF FF FF FF FF FF FF FF FF FF FF FF FF FF FF FF FF FF FF FF FF FF FF FF FF FF FF FF FF FF FF FF FF FF FF FF FF FF FF FF FF FF FF FF FF FF FF FF FF FF FF FF FF FF FF FF FF FF FF FF FF FF FF FF FF FF FF FF FF FF FF FF FF FF FF FF FF FF FF FF FF FF FF FF FF FF FF FF FF FF FF FF FF FF FF FF FF FF FF FF FF FF FF FF FF FF FF FF FF FF FF FF FF FF FF FF FF FF FF FF FF FF FF FF FF FF FF FF FF FF FF FF
13:03:11.395 设备发送:04 03 04 84 00 04 05 45
13:03:16.410 设备接收:FF FF FF FF FF FF FF FF FF FF FF FF FF FF FF FF FF FF FF FF FF FF FF FF FF FF FF FF FF FF FF FF FF FF FF FF FF FF FF FF FF FF FF FF FF FF FF FF FF FF FF FF FF FF FF FF FF FF FF FF FF FF FF FF FF FF FF FF FF FF FF FF FF FF FF FF FF FF FF FF FF FF FF FF FF FF FF FF FF FF FF FF FF FF FF FF FF FF FF FF FF FF FF FF FF FF FF FF FF FF FF FF FF FF FF FF FF FF FF FF FF FF FF FF FF FF FF FF FF FF FF FF FF FF FF FF FF FF FF FF FF FF FF FF FF FF FF FF FF FF
13:03:16.426 设备发送:04 03 04 8D 00 05 14 87
13:03:21.420 设备接收:FF FF FF FF FF FF FF FF FF FF FF FF FF FF FF FF FF FF FF FF FF FF FF FF FF FF FF FF FF FF FF FF FF FF FF FF FF FF FF FF FF FF FF FF FF FF FF FF FF FF FF FF FF FF FF FF FF FF FF FF FF FF FF FF FF FF FF FF FF FF FF FF FF FF FF FF FF FF FF FF FF FF FF FF FF FF FF FF FF FF FF FF FF FF FF FF FF FF FF FF FF FF FF FF FF FF FF FF FF FF FF FF FF FF FF FF FF FF FF FF FF FF FF FF FF FF FF FF FF FF FF FF FF FF FF FF FF FF FF FF FF FF FF FF FF FF FF FF FF FF
13:03:21.436 设备发送:04 03 04 98 00 05 05 43
13:03:26.421 设备接收:FF FF FF FF FF FF FF FF FF FF FF FF FF FF FF FF FF FF FF FF FF FF FF FF FF FF FF FF FF FF FF FF FF FF FF FF FF FF FF FF FF FF FF FF FF FF FF FF FF FF FF FF FF FF FF FF FF FF FF FF FF FF FF FF FF FF FF FF FF FF FF FF FF FF FF FF FF FF FF FF FF FF FF FF FF FF FF FF FF FF FF FF FF FF FF FF FF FF FF FF FF FF FF FF FF FF FF FF FF FF FF FF FF FF FF FF FF FF FF FF FF FF FF FF FF FF FF FF FF FF FF FF FF FF FF FF FF FF FF FF FF FF FF FF FF FF FF FF FF FF
13:03:26.450 设备发送:04 03 04 A3 00 05 74 8E
13:03:31.447 设备接收:FF FF FF FF FF FF FF FF FF FF FF FF FF FF FF FF FF FF FF FF FF FF FF FF FF FF FF FF FF FF FF FF FF FF FF FF FF FF FF FF FF FF FF FF FF FF FF FF FF FF FF FF FF FF FF FF FF FF FF FF FF FF FF FF FF FF FF FF FF FF FF FF FF FF FF FF FF FF FF FF FF FF FF FF FF FF FF FF FF FF FF FF FF FF FF FF FF FF FF FF FF FF FF FF FF FF FF FF FF FF FF FF FF FF FF FF FF FF FF FF FF FF FF FF FF FF FF FF FF FF FF FF FF FF FF FF FF FF FF FF FF FF FF FF FF FF FF FF FF FF
13:03:31.462 设备发送:04 03 06 84 00 04 04 FD
13:03:36.476 设备接收:FF FF FF FF FF FF FF FF FF FF FF FF FF FF FF FF FF FF FF FF FF FF FF FF FF FF FF FF FF FF FF FF FF FF FF FF FF FF FF FF FF FF FF FF FF FF FF FF FF FF FF FF FF FF FF FF FF FF FF FF FF FF FF FF FF FF FF FF FF FF FF FF FF FF FF FF FF FF FF FF FF FF FF FF FF FF FF FF FF FF FF FF FF FF FF FF FF FF FF FF FF FF FF FF FF FF FF FF FF FF FF FF FF FF FF FF FF FF FF FF FF FF FF FF FF FF FF FF FF FF FF FF FF FF FF FF FF FF FF FF FF FF FF FF FF FF FF FF FF FF
13:03:36.492 设备发送:04 03 04 04 00 01 C4 AE
13:03:41.496 设备接收:FF FF FF FF FF FF FF FF FF FF FF FF FF FF FF FF FF FF FF FF FF FF FF FF FF FF FF FF FF FF FF FF FF FF FF FF FF FF FF FF FF FF FF FF FF FF FF FF FF FF FF FF FF FF FF FF FF FF FF FF FF FF FF FF FF FF FF FF FF FF FF FF FF FF FF FF FF FF FF FF FF FF FF FF FF FF FF FF FF FF FF FF FF FF FF FF FF FF FF FF FF FF FF FF FF FF FF FF FF FF FF FF FF FF FF FF FF FF FF FF FF FF FF FF FF FF FF FF FF FF FF FF FF FF FF FF FF FF FF FF FF FF FF FF FF FF FF FF FF FF
13:03:41.512 设备发送:04 03 05 84 00 0F 45 7E
13:03:46.491 设备接收:FF FF FF FF FF FF FF FF FF FF FF FF FF FF FF FF FF FF FF FF FF FF FF FF FF FF FF FF FF FF FF FF FF FF FF FF FF FF FF FF FF FF FF FF FF FF FF FF FF FF FF FF FF FF FF FF FF FF FF FF FF FF FF FF FF FF FF FF FF FF FF FF FF FF FF FF FF FF FF FF FF FF FF FF FF FF FF FF FF FF FF FF FF FF FF FF FF FF FF FF FF FF FF FF FF FF FF FF FF FF FF FF FF FF FF FF FF FF FF FF FF FF FF FF FF FF FF FF FF FF FF FF FF FF FF FF FF FF FF FF FF FF FF FF FF FF FF FF FF FF
13:03:46.538 设备发送:04 03 05 93 00 0F F5 7A
13:03:51.519 设备接收:FF FF FF FF FF FF FF FF FF FF FF FF FF FF FF FF FF FF FF FF FF FF FF FF FF FF FF FF FF FF FF FF FF FF FF FF FF FF FF FF FF FF FF FF FF FF FF FF FF FF FF FF FF FF FF FF FF FF FF FF FF FF FF FF FF FF FF FF FF FF FF FF FF FF FF FF FF FF FF FF FF FF FF FF FF FF FF FF FF FF FF FF FF FF FF FF FF FF FF FF FF FF FF FF FF FF FF FF FF FF FF FF FF FF FF FF FF FF FF FF FF FF FF FF FF FF FF FF FF FF FF FF FF FF FF FF FF FF FF FF FF FF FF FF FF FF FF FF FF FF
13:03:51.535 设备发送:04 03 05 A2 00 0F A4 B5
13:03:56.542 设备接收:FF FF FF FF FF FF FF FF FF FF FF FF FF FF FF FF FF FF FF FF FF FF FF FF FF FF FF FF FF FF FF FF FF FF FF FF FF FF FF FF FF FF FF FF FF FF FF FF FF FF FF FF FF FF FF FF FF FF FF FF FF FF FF FF FF FF FF FF FF FF FF FF FF FF FF FF FF FF FF FF FF FF FF FF FF FF FF FF FF FF FF FF FF FF FF FF FF FF FF FF FF FF FF FF FF FF FF FF FF FF FF FF FF FF FF FF FF FF FF FF FF FF FF FF FF FF FF FF FF FF FF FF FF FF FF FF FF FF FF FF FF FF FF FF FF FF FF FF FF FF
13:03:56.557 设备发送:04 03 05 B1 00 03 55 75
13:04:01.582 设备接收:FF FF FF FF FF FF FF FF FF FF FF FF FF FF FF FF FF FF FF FF FF FF FF FF FF FF FF FF FF FF FF FF FF FF FF FF FF FF FF FF FF FF FF FF FF FF FF FF FF FF FF FF FF FF FF FF FF FF FF FF FF FF FF FF FF FF FF FF FF FF FF FF FF FF FF FF FF FF FF FF FF FF FF FF FF FF FF FF FF FF FF FF FF FF FF FF FF FF FF FF FF FF FF FF FF FF FF FF FF FF FF FF FF FF FF FF FF FF FF FF FF FF FF FF FF FF FF FF FF FF FF FF FF FF FF FF FF FF FF FF FF FF FF FF FF FF FF FF FF FF
13:04:01.598 设备发送:04 03 04 2B 00 01 F5 67
13:04:06.597 设备接收:FF FF FF FF FF FF FF FF FF FF FF FF FF FF FF FF FF FF FF FF FF FF FF FF FF FF FF FF FF FF FF FF FF FF FF FF FF FF FF FF FF FF FF FF FF FF FF FF FF FF FF FF FF FF FF FF FF FF FF FF FF FF FF FF FF FF FF FF FF FF FF FF FF FF FF FF FF FF FF FF FF FF FF FF FF FF FF FF FF FF FF FF FF FF FF FF FF FF FF FF FF FF FF FF FF FF FF FF FF FF FF FF FF FF FF FF FF FF FF FF FF FF FF FF FF FF FF FF FF FF FF FF FF FF FF FF FF FF FF FF FF FF FF FF FF FF FF FF FF FF
13:04:06.611 设备发送:04 03 04 20 00 01 84 A5
13:04:11.619 设备接收:FF FF FF FF FF FF FF FF FF FF FF FF FF FF FF FF FF FF FF FF FF FF FF FF FF FF FF FF FF FF FF FF FF FF FF FF FF FF FF FF FF FF FF FF FF FF FF FF FF FF FF FF FF FF FF FF FF FF FF FF FF FF FF FF FF FF FF FF FF FF FF FF FF FF FF FF FF FF FF FF FF FF FF FF FF FF FF FF FF FF FF FF FF FF FF FF FF FF FF FF FF FF FF FF FF FF FF FF FF FF FF FF FF FF FF FF FF FF FF FF FF FF FF 04 03 02 00 02 F5 85 FF FF FF FF FF FF FF FF FF FF FF FF FF FF FF FF FF FF FF FF
13:04:11.634 设备发送:04 03 04 05 00 01 95 6E
13:04:16.639 设备接收:FF FF FF FF FF FF FF FF FF FF FF FF FF FF FF FF FF FF FF FF FF FF FF FF FF FF FF FF FF FF FF FF FF FF FF FF FF FF FF FF FF FF FF FF FF FF FF FF FF FF FF FF FF FF FF FF FF FF FF FF FF FF FF FF FF FF FF FF FF FF FF FF FF FF FF FF FF FF FF FF FF FF FF FF FF FF FF FF FF FF FF FF FF FF FF FF FF FF FF FF FF FF FF FF FF FF FF FF FF FF FF FF FF FF FF FF FF FF FF FF FF FF FF FF FF FF FF FF FF FF FF FF FF FF FF FF FF FF FF FF FF FF FF FF FF FF FF FF FF FF
13:04:16.716 设备发送:05 03 04 84 00 04 04 94
13:04:21.658 设备接收:FF FF FF FF FF FF FF FF FF FF FF FF FF FF FF FF FF FF FF FF FF FF FF FF FF FF FF FF FF FF FF FF FF FF FF FF FF FF FF FF FF FF FF FF FF FF FF FF FF FF FF FF FF FF FF FF FF FF FF FF FF FF FF FF FF FF FF FF FF FF FF FF FF FF FF FF FF FF FF FF FF FF FF FF FF FF FF FF FF FF FF FF FF FF FF FF FF FF FF FF FF FF FF FF FF FF FF FF FF FF FF FF FF FF FF FF FF FF FF FF FF FF FF FF FF FF FF FF FF FF FF FF FF FF FF FF FF FF FF FF FF FF FF FF FF FF FF FF FF FF
13:04:21.673 设备发送:05 03 04 8D 00 05 15 56
13:04:26.652 设备接收:FF FF FF FF FF FF FF FF FF FF FF FF FF FF FF FF FF FF FF FF FF FF FF FF FF FF FF FF FF FF FF FF FF FF FF FF FF FF FF FF FF FF FF FF FF FF FF FF FF FF FF FF FF FF FF FF FF FF FF FF FF FF FF FF FF FF FF FF FF FF FF FF FF FF FF FF FF FF FF FF FF FF FF FF FF FF FF FF FF FF FF FF FF FF FF FF FF FF FF FF FF FF FF FF FF FF FF FF FF FF FF FF FF FF FF FF FF FF FF FF FF FF FF FF FF FF FF FF FF FF FF FF FF FF FF FF FF FF FF FF FF FF FF FF FF FF FF FF FF FF
13:04:26.699 设备发送:05 03 04 98 00 05 04 92
13:04:31.682 设备接收:FF FF FF FF FF FF FF FF FF FF FF FF FF FF FF FF FF FF FF FF FF FF FF FF FF FF FF FF FF FF FF FF FF FF FF FF FF FF FF FF FF FF FF FF FF FF FF FF FF FF FF FF FF FF FF FF FF FF FF FF FF FF FF FF FF FF FF FF FF FF FF FF FF FF FF FF FF FF FF FF FF FF FF FF FF FF FF FF FF FF FF FF FF FF FF FF FF FF FF FF FF FF FF FF FF FF FF FF FF FF FF FF FF FF FF FF FF FF FF FF FF FF FF FF FF FF FF FF FF FF FF FF FF FF FF FF FF FF FF FF FF FF FF FF FF FF FF FF FF FF
13:04:31.712 设备发送:05 03 04 A3 00 05 75 5F
13:04:36.696 设备接收:FF FF FF FF FF FF FF FF FF FF FF FF FF FF FF FF FF FF FF FF FF FF FF FF FF FF FF FF FF FF FF FF FF FF FF FF FF FF FF FF FF FF FF FF FF FF FF FF FF FF FF FF FF FF FF FF FF FF FF FF FF FF FF FF FF FF FF FF FF FF FF FF FF FF FF FF FF FF FF FF FF FF FF FF FF FF FF FF FF FF FF FF FF FF FF FF FF FF FF FF FF FF FF FF FF FF FF FF FF FF FF FF FF FF FF FF FF FF FF FF FF FF FF 04 03 02 00 32 F5 91 04 03 02 00 00 74 44 05 03 08 13 85 0D D9 00 0C 0D D9 0C F1
13:04:36.742 设备发送:05 03 06 84 00 04 05 2C
13:04:41.730 设备接收:05 03 0A 09 0F 14 4F 00 00 00 00 00 00 05 D6 05 03 0A 09 07 14 E8 00 00 00 00 00 00 B4 DC 05 03 0A 09 11 15 36 00 00 00 00 00 00 AD 7D 05 03 08 00 00 3E 03 00 0D CC C3 44 AB
13:04:41.746 设备发送:05 03 04 04 00 01 C5 7F
13:04:46.749 设备接收:05 03 02 00 02 C8 45
13:04:46.765 设备发送:05 03 05 84 00 0F 44 AF
13:04:51.762 设备接收:05 03 1E 04 36 00 00 00 00 04 38 00 00 00 00 04 2B 00 03 00 00 1D AF 04 49 03 41 17 1A 04 60 02 96 0F 5D
13:04:51.777 设备发送:05 03 05 93 00 0F F4 AB
13:04:56.789 设备接收:05 03 1E 17 50 04 7E 02 AE 16 71 04 8D 02 9D 1C FE 04 86 03 5B 04 34 00 03 00 00 04 2F 00 02 00 00 8D 45
13:04:56.805 设备发送:05 03 05 A2 00 0F A5 64
13:05:01.812 设备接收:05 03 1E 00 00 00 00 00 00 00 00 00 00 00 00 00 00 00 00 00 00 00 00 00 00 00 00 00 00 00 00 00 00 69 7B
13:05:01.829 设备发送:05 03 05 B1 00 03 54 A4
13:05:06.818 设备接收:05 03 06 00 00 00 00 00 00 13 B5
13:05:06.851 设备发送:05 03 04 2B 00 01 F4 B6
13:05:11.825 设备接收:05 03 02 01 E6 C9 9E
13:05:11.872 设备发送:05 03 04 20 00 01 85 74
13:05:16.843 设备接收:05 03 02 00 2D 89 99
13:05:16.890 设备发送:05 03 04 05 00 01 94 BF
13:05:21.869 设备接收:05 03 02 00 00 49 84
13:05:21.903 设备发送:06 03 04 84 00 04 04 A7
13:05:26.912 设备发送:06 03 04 84 00 04 04 A7
13:05:31.932 设备发送:06 03 04 84 00 04 04 A7
13:05:36.975 设备发送:06 03 04 8D 00 05 15 65
13:05:41.982 设备发送:06 03 04 8D 00 05 15 65
13:05:46.996 设备发送:06 03 04 8D 00 05 15 65
13:05:52.021 设备发送:06 03 04 98 00 05 04 A1
13:05:57.046 设备发送:06 03 04 98 00 05 04 A1
13:06:02.074 设备发送:06 03 04 98 00 05 04 A1
13:06:07.069 设备发送:06 03 04 A3 00 05 75 6C
13:06:12.107 设备发送:06 03 04 A3 00 05 75 6C
13:06:17.126 设备发送:06 03 04 A3 00 05 75 6C
13:06:22.128 设备发送:06 03 06 84 00 04 05 1F
13:06:27.160 设备发送:06 03 06 84 00 04 05 1F
13:06:32.181 设备发送:06 03 06 84 00 04 05 1F
13:06:37.198 设备发送:06 03 04 04 00 01 C5 4C
13:06:42.229 设备发送:06 03 04 04 00 01 C5 4C
13:06:47.238 设备发送:06 03 04 04 00 01 C5 4C
13:06:52.249 设备发送:06 03 05 84 00 0F 44 9C
13:06:57.301 设备发送:06 03 05 84 00 0F 44 9C
13:07:02.300 设备发送:06 03 05 84 00 0F 44 9C
13:07:07.321 设备发送:06 03 05 93 00 0F F4 98
13:07:12.330 设备发送:06 03 05 93 00 0F F4 98
13:07:17.340 设备发送:06 03 05 93 00 0F F4 98
13:07:22.360 设备发送:06 03 05 A2 00 0F A5 57
13:07:27.379 设备发送:06 03 05 A2 00 0F A5 57
13:07:32.405 设备发送:06 03 05 A2 00 0F A5 57
13:07:37.450 设备发送:06 03 05 B1 00 03 54 97
13:07:42.448 设备发送:06 03 05 B1 00 03 54 97
13:07:47.483 设备发送:06 03 05 B1 00 03 54 97
13:07:52.478 设备发送:06 03 04 2B 00 01 F4 85
13:07:57.526 设备发送:06 03 04 2B 00 01 F4 85
13:08:02.537 设备发送:06 03 04 2B 00 01 F4 85
13:08:07.552 设备发送:06 03 04 20 00 01 85 47
13:08:12.578 设备发送:06 03 04 20 00 01 85 47
13:08:17.615 设备发送:06 03 04 20 00 01 85 47
13:08:22.607 设备发送:06 03 04 05 00 01 94 8C
13:08:27.625 设备发送:06 03 04 05 00 01 94 8C
13:08:32.658 设备发送:06 03 04 05 00 01 94 8C
13:08:37.684 设备发送:01 03 04 84 00 04 05 10
13:08:42.665 设备接收:01 03 08 13 8A 14 A0 FF D3 14 A0 B2 9E
13:08:42.683 设备发送:01 03 04 8D 00 05 14 D2
13:08:47.694 设备接收:01 03 0A 08 E2 1E A3 00 00 00 00 00 00 66 72
13:08:47.710 设备发送:01 03 04 98 00 05 05 16
13:08:52.724 设备接收:01 03 0A 08 DB 1E E7 00 00 00 00 00 00 5C 27
13:08:52.740 设备发送:01 03 04 A3 00 05 74 DB
13:08:57.722 设备接收:01 03 0A 08 F0 1F 60 00 00 00 00 00 00 80 12
13:08:57.738 设备发送:01 03 06 84 00 04 04 A8
13:09:02.748 设备接收:01 03 08 00 00 63 99 00 13 38 3C 62 4C
13:09:02.764 设备发送:01 03 04 04 00 01 C4 FB
13:09:07.778 设备接收:01 03 02 00 02 39 85
13:09:07.793 设备发送:01 03 05 84 00 0F 45 2B
13:09:12.777 设备接收:01 03 1E 19 F6 04 80 02 FE 1A 29 04 5F 02 ED 19 E5 04 71 02 F1 19 E4 02 2D 01 71 1D 04 04 69 03 47 FA BB
13:09:12.807 设备发送:01 03 05 93 00 0F F5 2F
13:09:17.818 设备接收:01 03 1E 1C EB 02 39 01 A5 1D 04 02 2E 01 9F 1C A5 02 38 01 A1 1C E0 02 41 01 AB 1C A8 02 32 01 9C 3B D6
13:09:17.834 设备发送:01 03 05 A2 00 0F A4 E0
13:09:22.844 设备接收:01 03 1E 00 00 00 00 00 00 00 00 00 01 00 00 00 00 00 00 00 00 00 00 00 00 00 00 00 00 00 00 00 00 C8 6B
13:09:22.860 设备发送:01 03 05 B1 00 03 55 20
13:09:27.838 设备接收:01 03 06 00 00 00 00 00 00 21 75
13:09:27.885 设备发送:01 03 04 2B 00 01 F5 32
13:09:32.870 设备接收:01 03 02 01 B2 39 A1
13:09:32.886 设备发送:01 03 04 20 00 01 84 F0
13:09:37.899 设备接收:01 03 02 00 3D 79 95
13:09:37.914 设备发送:01 03 04 05 00 01 95 3B
13:09:42.912 设备接收:01 03 02 00 00 B8 44
13:09:42.928 设备发送:02 03 04 84 00 04 05 23
13:09:47.923 设备接收:02 03 08 13 85 07 98 FF D7 07 98 AC 9F
13:09:47.955 设备发送:02 03 04 8D 00 05 14 E1
13:09:52.955 设备接收:02 03 0A 09 01 0B 3C 00 00 00 00 00 00 41 7A
13:09:52.971 设备发送:02 03 04 98 00 05 05 25
13:09:57.979 设备接收:02 03 0A 08 F8 0B 6C 00 00 00 00 00 00 2E EE
13:09:57.995 设备发送:02 03 04 A3 00 05 74 E8
13:10:02.995 设备接收:02 03 0A 08 F6 0B 64 00 00 00 00 00 00 EB 4E
13:10:03.011 设备发送:02 03 06 84 00 04 04 9B
13:10:07.991 设备接收:02 03 08 00 00 21 D9 00 07 1B 43 7B 31
13:10:08.022 设备发送:02 03 04 04 00 01 C4 C8
13:10:13.024 设备接收:02 03 02 00 02 7D 85
13:10:13.039 设备发送:01 03 05 84 00 06 85 2D
13:10:18.074 设备接收:01 03 0C 19 FB 05 64 03 96 1A 51 05 40 03 89 6B C2
13:10:18.089 设备发送:01 03 05 8A 00 06 E4 EE
13:10:23.065 设备接收:01 03 0C 19 BF 05 79 03 9C 1A 38 02 AA 01 C9 68 7A
13:10:23.080 设备发送:01 03 05 90 00 06 C5 29
13:10:28.084 设备接收:01 03 0C 1D 08 05 70 04 0A 1D 3E 02 BC 02 0C A0 6C
13:10:28.099 设备发送:01 03 05 96 00 06 25 28
13:10:33.101 设备接收:01 03 0C 1D 7E 02 B8 02 0D 1C CE 02 B9 02 02 B4 D1
13:10:33.132 设备发送:01 03 05 9C 00 06 05 2A
13:10:38.148 设备接收:01 03 0C 1C E1 02 C9 02 0F 1C D1 02 BB 02 03 3A 54
13:10:38.163 设备发送:02 03 05 A2 00 06 64 D5
13:10:43.147 设备接收:02 03 0C 00 00 00 00 00 00 00 00 00 00 00 00 D0 71
13:10:43.178 设备发送:02 03 05 A8 00 06 44 D7
13:10:48.186 设备接收:02 03 0C 00 00 00 00 00 00 00 00 00 00 00 00 D0 71
13:10:48.202 设备发送:02 03 05 AE 00 06 A4 D6
13:10:53.184 设备接收:02 03 0C 00 00 00 00 00 00 00 00 00 00 00 00 D0 71
13:10:53.200 设备发送:02 03 04 2B 00 01 F5 01
13:10:58.220 设备接收:02 03 02 01 77 BD F2
13:10:58.236 设备发送:02 03 04 20 00 01 84 C3
13:11:03.220 设备接收:02 03 02 00 27 BC 5E
13:11:03.268 设备发送:02 03 04 05 00 01 95 08
13:11:08.263 设备接收:02 03 02 00 00 FC 44
13:11:08.278 设备发送:03 03 04 84 00 04 04 F2
13:11:13.258 设备接收:03 03 08 13 89 03 EC 00 04 03 EE 97 27
13:11:13.304 设备发送:03 03 04 8D 00 05 15 30
13:11:18.298 设备接收:03 03 0A 09 0F 05 9E 00 00 00 00 00 00 0D DD
13:11:18.329 设备发送:03 03 04 98 00 05 04 F4
13:11:23.320 设备接收:03 03 0A 09 13 05 9D 00 00 00 00 00 00 A6 1D
13:11:23.335 设备发送:03 03 04 A3 00 05 75 39
13:11:28.338 设备接收:03 03 0A 09 20 05 92 00 00 00 00 00 00 19 EC
13:11:28.353 设备发送:03 03 06 84 00 04 05 4A
13:11:33.361 设备接收:03 03 08 00 00 0F D6 00 03 48 D1 D1 1E
13:11:33.381 设备发送:03 03 04 04 00 01 C5 19
13:11:38.366 设备接收:03 03 02 00 02 40 45
13:11:38.398 设备发送:03 03 05 84 00 06 84 CF
13:11:43.398 设备发送:03 03 05 84 00 06 84 CF
13:11:48.406 设备接收:03 03 0C 1D 62 02 7C 01 DE 1D 14 02 79 01 D7 04 0C FF FF FF FF FF FF FF FF FF FF FF FF FF FF FF FF FF FF FF FF FF FF FF FF FF FF FF FF FF FF FF FF FF FF FF FF FF FF FF FF FF FF FF FF FF FF FF FF FF FF FF FF FF FF FF FF FF FF FF FF FF FF FF FF FF FF FF FF FF FF FF FF FF FF FF FF FF FF FF FF FF FF FF FF FF FF FF FF FF FF FF FF FF FF FF FF FF FF FF FF FF FF FF FF FF FF FF FF FF FF FF FF FF FF FF FF FF FF FF FF FF FF FF FF FF FF FF FF FF FF FF FF FF
13:11:48.421 设备发送:03 03 05 8A 00 06 E5 0C
13:11:53.448 设备接收:FF FF FF FF FF FF FF FF FF FF FF FF FF FF FF FF FF FF FF FF FF FF FF FF FF FF FF FF FF FF FF FF FF FF FF FF FF FF FF FF FF FF FF FF FF FF FF FF FF FF FF FF FF FF FF FF FF FF FF FF FF FF FF FF FF FF FF FF FF FF FF FF FF FF FF FF FF FF FF FF FF FF FF FF FF FF FF FF FF FF FF FF FF FF FF FF FF FF FF FF FF FF FF FF FF FF FF FF FF FF FF FF FF FF FF FF FF FF FF FF FF FF FF FF FF FF FF FF FF FF FF FF FF FF FF FF FF FF FF FF FF FF FF FF FF FF FF FF FF FF
13:11:53.463 设备发送:03 03 05 90 00 06 C4 CB
13:11:58.449 设备接收:FF FF FF FF FF FF FF FF FF FF FF FF FF FF FF FF FF FF FF FF FF FF FF FF FF FF FF FF FF FF FF FF FF FF FF FF FF FF FF FF FF FF FF FF FF FF FF FF FF FF FF FF FF FF FF FF FF FF FF FF FF FF FF FF FF FF FF FF FF FF FF FF FF FF FF FF FF FF FF FF FF FF FF FF FF FF FF FF FF FF FF FF FF FF FF FF FF FF FF FF FF FF FF FF FF FF FF FF FF FF FF FF FF FF FF FF FF FF FF FF FF FF FF FF FF FF FF FF FF FF FF FF FF FF FF FF FF FF FF FF FF FF FF FF FF FF FF FF FF FF
13:11:58.464 设备发送:03 03 05 96 00 06 24 CA
13:12:03.476 设备接收:FF FF FF FF FF FF FF FF FF FF FF FF FF FF FF FF FF FF FF FF FF FF FF FF FF FF FF FF FF FF FF FF FF FF FF FF FF FF FF FF FF FF FF FF FF FF FF FF FF FF FF FF FF FF FF FF FF FF FF FF FF FF FF FF FF FF FF FF FF FF FF FF FF FF FF FF FF FF FF FF FF FF FF FF FF FF FF FF FF FF FF FF FF FF FF FF FF FF FF FF FF FF FF FF FF FF FF FF FF FF FF FF FF FF FF FF FF FF FF FF FF FF FF FF FF FF FF FF FF FF FF FF FF FF FF FF FF FF FF FF FF FF FF FF FF FF FF FF FF FF
13:12:03.495 设备发送:03 03 05 9C 00 06 04 C8
13:12:08.484 设备接收:FF FF FF FF FF FF FF FF FF FF FF FF FF FF FF FF FF FF FF FF FF FF FF FF FF FF FF FF FF FF FF FF FF FF FF FF FF FF FF FF FF FF FF FF FF FF FF FF FF FF FF FF FF FF FF FF FF FF FF FF FF FF FF FF FF FF FF FF FF FF FF FF FF FF FF FF FF FF FF FF FF FF FF FF FF FF FF FF FF FF FF FF FF FF FF FF FF FF FF FF FF FF FF FF FF FF FF FF FF FF FF FF FF FF FF FF FF FF FF FF FF FF FF FF FF FF FF FF FF FF FF FF FF FF FF FF FF FF FF FF FF FF FF FF FF FF FF FF FF FF
13:12:08.516 设备发送:03 03 05 A2 00 06 65 04
13:12:13.509 设备接收:FF FF FF FF FF FF FF FF FF FF FF FF FF FF FF FF FF FF FF FF FF FF FF FF FF FF FF FF FF FF FF FF FF FF FF FF FF FF FF FF FF FF FF FF FF FF FF FF FF FF FF FF FF FF FF FF FF FF FF FF FF FF FF FF FF FF FF FF FF FF FF FF FF FF FF FF FF FF FF FF FF FF FF FF FF FF FF FF FF FF FF FF FF FF FF FF FF FF FF FF FF FF FF FF FF FF FF FF FF FF FF FF FF FF FF FF FF FF FF FF FF FF FF FF FF FF FF FF FF FF FF FF FF FF FF FF FF FF FF FF FF FF FF FF FF FF FF FF FF FF
13:12:13.524 设备发送:03 03 05 A8 00 06 45 06
13:12:18.553 设备接收:FF FF FF FF FF FF FF FF FF FF FF FF FF FF FF FF FF FF FF FF FF FF FF FF FF FF FF FF FF FF FF FF FF FF FF FF FF FF FF FF FF FF FF FF FF FF FF FF FF FF FF FF FF FF FF FF FF FF FF FF FF FF FF FF FF FF FF FF FF FF FF FF FF FF FF FF FF FF FF FF FF FF FF FF FF FF FF FF FF FF FF FF FF FF FF FF FF FF FF FF FF FF FF FF FF FF FF FF FF FF FF FF FF FF FF FF FF FF FF FF FF FF FF FF FF FF FF FF FF FF FF FF FF FF FF FF FF FF FF FF FF FF FF FF FF FF FF FF FF FF
13:12:18.584 设备发送:03 03 05 AE 00 06 A5 07
13:12:23.566 设备接收:FF FF FF FF FF FF FF FF FF FF FF FF FF FF FF FF FF FF FF FF FF FF FF FF FF FF FF FF FF FF FF FF FF FF FF FF FF FF FF FF FF FF FF FF FF FF FF FF FF FF FF FF FF FF FF FF FF FF FF FF FF FF FF FF FF FF FF FF FF FF FF FF FF FF FF FF FF FF FF FF FF FF FF FF FF FF FF FF FF FF FF FF FF FF FF FF FF FF FF FF FF FF FF FF FF FF FF FF FF FF FF FF FF FF FF FF FF FF FF FF FF FF FF FF FF FF FF FF FF FF FF FF FF FF FF FF FF FF FF FF FF FF FF FF FF FF FF FF FF FF
13:12:23.580 设备发送:03 03 04 2B 00 01 F4 D0
13:12:28.582 设备接收:FF FF FF FF FF FF FF FF FF FF FF FF FF FF FF FF FF FF FF FF FF FF FF FF FF FF FF FF FF FF FF FF FF FF FF FF FF FF FF FF FF FF FF FF FF FF FF FF FF FF FF FF FF FF FF FF FF FF FF FF FF FF FF FF FF FF FF FF FF FF FF FF FF FF FF FF FF FF FF FF FF FF FF FF FF FF FF FF FF FF FF FF FF FF FF FF FF FF FF FF FF FF FF FF FF FF FF FF FF FF FF FF FF FF FF FF FF FF FF FF FF FF FF FF FF FF FF FF FF FF FF FF FF FF FF FF FF FF FF FF FF FF FF FF FF FF FF FF FF FF
13:12:28.598 设备发送:03 03 04 20 00 01 85 12
13:12:33.597 设备接收:FF FF FF FF FF FF FF FF FF FF FF FF FF FF FF FF FF FF FF FF FF FF FF FF FF FF FF FF FF FF FF FF FF FF FF FF FF FF FF FF FF FF FF FF FF FF FF FF FF FF FF FF FF FF FF FF FF FF FF FF FF FF FF FF FF FF FF FF FF FF FF FF FF FF FF FF FF FF FF FF FF FF FF FF FF FF FF FF FF FF FF FF FF FF FF FF FF FF FF FF FF FF FF FF FF FF FF FF FF FF FF FF FF FF FF FF FF FF FF FF FF FF FF FF FF FF FF FF FF FF FF FF FF FF FF FF FF FF FF FF FF FF FF FF FF FF FF FF FF FF
13:12:33.613 设备发送:03 03 04 05 00 01 94 D9
13:12:38.618 设备接收:FF FF FF FF FF FF FF FF FF FF FF FF FF FF FF FF FF FF FF FF FF FF FF FF FF FF FF FF FF FF FF FF FF FF FF FF FF FF FF FF FF FF FF FF FF FF FF FF FF FF FF FF FF FF FF FF FF FF FF FF FF FF FF FF FF FF FF FF FF FF FF FF FF FF FF FF FF FF FF FF FF FF FF FF FF FF FF FF FF FF FF FF FF FF FF FF FF FF FF FF FF FF FF FF FF FF FF FF FF FF FF FF FF FF FF FF FF FF FF FF FF FF FF FF FF FF FF FF FF FF FF FF FF FF FF FF FF FF FF FF FF FF FF FF FF FF FF FF FF FF
13:12:38.633 设备发送:04 03 04 84 00 04 05 45
13:12:43.617 设备接收:FF FF FF FF FF FF FF FF FF FF FF FF FF FF FF FF FF FF FF FF FF FF FF FF FF FF FF FF FF FF FF FF FF FF FF FF FF FF FF FF FF FF FF FF FF FF FF FF FF FF FF FF FF FF FF FF FF FF FF FF FF FF FF FF FF FF FF FF FF FF FF FF FF FF FF FF FF FF FF FF FF FF FF FF FF FF FF FF FF FF FF FF FF FF FF FF FF FF FF FF FF FF FF FF FF FF FF FF FF FF FF FF FF FF FF FF FF FF FF FF FF FF FF FF FF FF FF FF FF FF FF FF FF FF FF FF FF FF FF FF FF FF FF FF FF FF FF FF FF FF
13:12:43.664 设备发送:04 03 04 8D 00 05 14 87
13:12:48.665 设备接收:FF FF FF FF FF FF FF FF FF FF FF FF FF FF FF FF FF FF FF FF FF FF FF FF FF FF FF FF FF FF FF FF FF FF FF FF FF FF FF FF FF FF FF FF FF FF FF FF FF FF FF FF FF FF FF FF FF FF FF FF FF FF FF FF FF FF FF FF FF FF FF FF FF FF FF FF FF FF FF FF FF FF FF FF FF FF FF FF FF FF FF FF FF FF FF FF FF FF FF FF FF FF FF FF FF FF FF FF FF FF FF FF FF FF FF FF FF FF FF FF FF FF FF FF FF FF FF FF FF FF FF FF FF FF FF FF FF FF FF FF FF FF FF FF FF FF FF FF FF FF
13:12:48.681 设备发送:04 03 04 98 00 05 05 43
13:12:53.658 设备接收:FF FF FF FF FF FF FF FF FF FF FF FF FF FF FF FF FF FF FF FF FF FF FF FF FF FF FF FF FF FF FF FF FF FF FF FF FF FF FF FF FF FF FF FF FF FF FF FF FF FF FF FF FF FF FF FF FF FF FF FF FF FF FF FF FF FF FF FF FF FF FF FF FF FF FF FF FF FF FF FF FF FF FF FF FF FF FF FF FF FF FF FF FF FF FF FF FF FF FF FF FF FF FF FF FF FF FF FF FF FF FF FF FF FF FF FF FF FF FF FF FF FF FF FF FF FF FF FF FF FF FF FF FF FF FF FF FF FF FF FF FF FF FF FF FF FF FF FF FF FF
13:12:53.674 设备发送:04 03 04 A3 00 05 74 8E
13:12:58.692 设备接收:FF FF FF FF FF FF FF FF FF FF FF FF FF FF FF FF FF FF FF FF FF FF FF FF FF FF FF FF FF FF FF FF FF FF FF FF FF FF FF FF FF FF FF FF FF FF FF FF FF FF FF FF FF FF FF FF FF FF FF FF FF FF FF FF FF FF FF FF FF FF FF FF FF FF FF FF FF FF FF FF FF FF FF FF FF FF FF FF FF FF FF FF FF FF FF FF FF FF FF FF FF FF FF FF FF FF FF FF FF FF FF FF FF FF FF FF FF FF FF FF FF FF FF FF FF FF FF FF FF FF FF FF FF FF FF FF FF FF FF FF FF FF FF FF FF FF FF FF FF FF
13:12:58.711 设备发送:04 03 06 84 00 04 04 FD
13:13:03.722 设备接收:FF FF FF FF FF FF FF FF FF FF FF FF FF FF FF FF FF FF FF FF FF FF FF FF FF FF FF FF FF FF FF FF FF FF FF FF FF FF FF FF FF FF FF FF FF FF FF FF FF FF FF FF FF FF FF FF FF FF FF FF FF FF FF FF FF FF FF FF FF FF FF FF FF FF FF FF FF FF FF FF FF FF FF FF FF FF FF FF FF FF FF FF FF FF FF FF FF FF FF FF FF FF FF FF FF FF FF FF FF FF FF FF FF FF FF FF FF FF FF FF FF FF FF FF FF FF FF FF FF FF FF FF FF FF FF FF FF FF FF FF FF FF FF FF FF FF FF FF FF FF
13:13:03.737 设备发送:04 03 04 04 00 01 C4 AE
13:13:08.741 设备接收:FF FF FF FF FF FF FF FF FF FF FF FF FF FF FF FF FF FF FF FF FF FF FF FF FF FF FF FF FF FF FF FF FF FF FF FF FF FF FF FF FF FF FF FF FF FF FF FF FF FF FF FF FF FF FF FF FF FF FF FF FF FF FF FF FF FF FF FF FF FF FF FF FF FF FF FF FF FF FF FF FF FF FF FF FF FF FF FF FF FF FF FF FF FF FF FF FF FF FF FF FF FF FF FF FF FF FF FF FF FF FF FF FF FF FF FF FF FF FF FF FF FF FF FF FF FF FF FF FF FF FF FF FF FF FF FF FF FF FF FF FF FF FF FF FF FF FF FF FF FF
13:13:08.756 设备发送:04 03 05 84 00 0F 45 7E
13:13:13.744 设备接收:FF FF FF FF FF FF FF FF FF FF FF FF FF FF FF FF FF FF FF FF FF FF FF FF FF FF FF FF FF FF FF FF FF FF FF FF FF FF FF FF FF FF FF FF FF FF FF FF FF FF FF FF FF FF FF FF FF FF FF FF FF FF FF FF FF FF FF FF FF FF FF FF FF FF FF FF FF FF FF FF FF FF FF FF FF FF FF FF FF FF FF FF FF FF FF FF FF FF FF FF FF FF FF FF FF FF FF FF FF FF FF FF FF FF FF FF FF FF FF FF FF FF FF FF FF FF FF FF FF FF FF FF FF FF FF FF FF FF FF FF FF FF FF FF FF FF FF FF FF FF
13:13:13.759 设备发送:04 03 05 93 00 0F F5 7A
13:13:18.755 设备接收:FF FF FF FF FF FF FF FF FF FF FF FF FF FF FF FF FF FF FF FF FF FF FF FF FF FF FF FF FF FF FF FF FF FF FF FF FF FF FF FF FF FF FF FF FF FF FF FF FF FF FF FF FF FF FF FF FF FF FF FF FF FF FF FF FF FF FF FF FF FF FF FF FF FF FF FF FF FF FF FF FF FF FF FF FF FF FF FF FF FF FF FF FF FF FF FF FF FF FF FF FF FF FF FF FF FF FF FF FF FF FF FF FF FF FF FF FF FF FF FF FF FF FF FF FF FF FF FF FF FF FF FF FF FF FF FF FF FF FF FF FF FF FF FF FF FF FF FF FF FF
13:13:18.770 设备发送:04 03 05 A2 00 0F A4 B5
13:13:23.781 设备接收:FF FF FF FF FF FF FF FF FF FF FF FF FF FF FF FF FF FF FF FF FF FF FF FF FF FF FF FF FF FF FF FF FF FF FF FF FF FF FF FF FF FF FF FF FF FF FF FF FF FF FF FF FF FF FF FF FF FF FF FF FF FF FF FF FF FF FF FF FF FF FF FF FF FF FF FF FF FF FF FF FF FF FF FF FF FF FF FF FF FF FF FF FF FF FF FF FF FF FF FF FF FF FF FF FF FF FF FF FF FF FF FF FF FF FF FF FF FF FF FF FF FF FF FF FF FF FF FF FF FF FF FF FF FF FF FF FF FF FF FF FF FF FF FF FF FF FF FF FF FF
13:13:23.812 设备发送:04 03 05 B1 00 03 55 75
13:13:28.798 设备接收:FF FF FF FF FF FF FF FF FF FF FF FF FF FF FF FF FF FF FF FF FF FF FF FF FF FF FF FF FF FF FF FF FF FF FF FF FF FF FF FF FF FF FF FF FF FF FF FF FF FF FF FF FF FF FF FF FF FF FF FF FF FF FF FF FF FF FF FF FF FF FF FF FF FF FF FF FF FF FF FF FF FF FF FF FF FF FF FF FF FF FF FF FF FF FF FF FF FF FF FF FF FF FF FF FF FF FF FF FF FF FF FF FF FF FF FF FF FF FF FF FF FF FF FF FF FF FF FF FF FF FF FF FF FF FF FF FF FF FF FF FF FF FF FF FF FF FF FF FF FF
13:13:28.829 设备发送:04 03 04 2B 00 01 F5 67
13:13:33.831 设备接收:FF FF FF FF FF FF FF FF FF FF FF FF FF FF FF FF FF FF FF FF FF FF FF FF FF FF FF FF FF FF FF FF FF FF FF FF FF FF FF FF FF FF FF FF FF FF FF FF FF FF FF FF FF FF FF FF FF FF FF FF FF FF FF FF FF FF FF FF FF FF FF FF FF FF FF FF FF FF FF FF FF FF FF FF FF FF FF FF FF FF FF FF FF FF FF FF FF FF FF FF FF FF FF FF FF FF FF FF FF FF FF FF FF FF FF FF FF FF FF FF FF FF FF FF FF FF FF FF FF FF FF FF FF FF FF FF FF FF FF FF FF FF FF FF FF FF FF FF FF FF
13:13:33.847 设备发送:04 03 04 20 00 01 84 A5
13:13:38.859 设备接收:FF FF FF FF FF FF FF FF FF FF FF FF FF FF FF FF FF FF FF FF FF FF FF FF FF FF FF FF FF FF FF FF FF FF FF FF FF FF FF FF FF FF FF FF FF FF FF FF FF FF FF FF FF FF FF FF FF FF FF FF FF FF FF FF FF FF FF FF FF FF FF FF FF FF FF FF FF FF FF FF FF FF FF FF FF FF FF FF FF FF FF FF FF FF FF FF FF FF FF FF FF FF FF FF FF FF FF FF FF FF FF FF FF FF FF FF FF FF FF FF FF FF FF FF FF FF FF FF FF FF FF FF FF FF FF FF FF FF FF FF FF FF FF FF FF FF FF FF FF FF
13:13:38.887 设备发送:04 03 04 05 00 01 95 6E
13:13:43.863 设备接收:FF FF FF FF FF FF FF FF FF FF FF FF FF FF FF FF FF FF FF FF FF FF FF FF FF FF FF FF FF FF FF FF FF FF FF FF FF FF FF FF FF FF FF FF FF FF FF FF FF FF FF FF FF FF FF FF FF FF FF FF FF FF FF FF FF FF FF FF FF FF FF FF FF FF FF FF FF FF FF FF FF FF FF FF FF FF FF FF FF FF FF FF FF FF FF FF FF FF FF FF FF FF FF FF FF FF FF FF FF FF FF FF FF FF FF FF FF FF FF FF FF FF FF FF FF FF FF FF FF FF FF FF FF FF FF FF FF FF FF FF FF FF FF FF FF FF FF FF FF FF
13:13:43.878 设备发送:05 03 04 84 00 04 04 94
13:13:48.906 设备接收:FF FF FF FF FF FF FF FF FF FF FF FF FF FF FF FF FF FF FF FF FF FF FF FF FF FF FF FF FF FF FF FF FF FF FF FF FF FF FF FF FF FF FF FF FF FF FF FF FF FF FF FF FF FF FF FF FF FF FF FF FF FF FF FF FF FF FF FF FF FF FF FF FF FF FF FF FF FF FF FF FF FF FF FF FF FF FF FF FF FF FF FF FF FF FF FF FF FF FF FF FF FF FF FF FF FF FF FF FF FF FF FF FF FF FF FF FF FF FF FF FF FF FF FF FF FF FF FF FF FF FF FF FF FF FF FF FF FF FF FF FF FF FF FF FF FF FF FF FF FF
13:13:48.917 设备发送:05 03 04 8D 00 05 15 56
13:13:53.907 设备接收:FF FF FF FF FF FF FF FF FF FF FF FF FF FF FF FF FF FF FF FF FF FF FF FF FF FF FF FF FF FF FF FF FF FF FF FF FF FF FF FF FF FF FF FF FF FF FF FF FF FF FF FF FF FF FF FF FF FF FF FF FF FF FF FF FF FF FF FF FF FF FF FF FF FF FF FF FF FF FF FF FF FF FF FF FF FF FF FF FF FF FF FF FF FF FF FF FF FF FF FF FF FF FF FF FF FF FF FF FF FF FF FF FF FF FF FF FF FF FF FF FF FF FF FF FF FF FF FF FF FF FF FF FF FF FF FF FF FF FF FF FF FF FF FF FF FF FF FF FF FF
13:13:53.922 设备发送:05 03 04 98 00 05 04 92
13:13:58.908 设备接收:FF FF FF FF FF FF FF FF FF FF FF FF FF FF FF FF FF FF FF FF FF FF FF FF FF FF FF FF FF FF FF FF FF FF FF FF FF FF FF FF FF FF FF FF FF FF FF FF FF FF FF FF FF FF FF FF FF FF FF FF FF FF FF FF FF FF FF FF FF FF FF FF FF FF FF FF FF FF FF FF FF FF FF FF FF FF FF FF FF FF FF FF FF FF FF FF FF FF FF FF FF FF FF FF FF FF FF FF FF FF FF FF FF FF FF FF FF FF FF FF FF FF FF FF FF FF FF FF FF FF FF FF FF FF FF FF FF FF FF FF FF FF FF FF FF FF FF FF FF FF
13:13:58.969 设备发送:05 03 04 A3 00 05 75 5F
13:14:03.955 设备接收:FF FF FF FF FF FF FF FF FF FF FF FF FF FF FF FF FF FF FF FF FF FF FF FF FF FF FF FF FF FF FF FF FF FF FF FF FF FF FF FF FF FF FF FF FF FF FF FF FF FF FF FF FF FF FF FF FF FF FF FF FF FF FF FF FF FF FF FF FF FF FF FF FF FF FF FF FF FF FF FF FF FF FF FF FF FF FF FF FF FF FF FF FF FF FF FF FF FF FF FF FF FF FF FF FF FF FF FF FF FF FF FF FF FF FF FF FF FF FF FF FF FF FF FF FF FF FF FF FF FF FF FF FF FF FF FF FF FF FF FF FF FF FF FF FF FF FF FF FF FF
13:14:03.970 设备发送:05 03 06 84 00 04 05 2C
13:14:08.959 设备接收:FF FF FF FF FF FF FF FF FF FF FF FF FF FF FF FF FF FF FF FF FF FF FF FF FF FF FF FF FF FF FF FF FF FF FF FF FF FF FF FF FF FF FF FF FF FF FF FF FF FF FF FF FF FF FF FF FF FF FF FF FF FF FF FF FF FF FF FF FF FF FF FF FF FF FF FF FF FF FF FF FF FF FF FF FF FF FF FF FF FF FF FF FF FF FF FF FF FF FF FF FF FF FF FF FF FF FF FF FF FF FF FF FF FF FF FF FF FF FF FF FF FF FF FF FF FF FF FF FF FF FF FF FF FF FF FF FF FF FF FF FF FF FF FF FF FF FF FF FF FF
13:14:08.974 设备发送:05 03 04 04 00 01 C5 7F
13:14:13.985 设备接收:FF FF FF FF FF FF FF FF FF FF FF FF FF FF FF FF FF FF FF FF FF FF FF FF FF FF FF FF FF FF FF FF FF FF FF FF FF FF FF FF FF FF FF FF FF FF FF FF FF FF FF FF FF FF FF FF FF FF FF FF FF FF FF FF FF FF FF FF FF FF FF FF FF FF FF FF FF FF FF FF FF FF FF FF FF FF FF FF FF FF FF FF FF FF FF FF FF FF FF FF FF FF FF FF FF FF FF FF FF FF FF FF FF FF FF FF FF FF FF FF FF FF FF FF FF FF FF FF FF FF FF FF FF FF FF FF FF FF FF FF FF FF FF FF FF FF FF FF FF FF
13:14:14.001 设备发送:05 03 05 84 00 0F 44 AF
13:14:19.016 设备接收:FF FF FF FF FF FF FF FF FF FF FF FF FF FF FF FF FF FF FF FF FF FF FF FF FF FF FF FF FF FF FF FF FF FF FF FF FF FF FF FF FF FF FF FF FF FF FF FF FF FF FF FF FF FF FF FF FF FF FF FF FF FF FF FF FF FF FF FF FF FF FF FF FF FF FF FF FF FF FF FF FF FF FF FF FF FF FF FF FF FF FF FF FF FF FF FF FF FF FF FF FF FF FF FF FF FF FF FF FF FF FF FF FF FF FF FF FF FF FF FF FF FF FF FF FF FF FF FF FF FF FF FF FF FF FF FF FF FF FF FF FF FF FF FF FF FF FF FF FF FF
13:14:19.031 设备发送:05 03 05 93 00 0F F4 AB
13:14:24.029 设备接收:FF FF FF FF FF FF FF FF FF FF FF FF FF FF FF FF FF FF FF FF FF FF FF FF FF FF FF FF FF FF FF FF FF FF FF FF FF FF FF FF FF FF FF FF FF FF FF FF FF FF FF FF FF FF FF FF FF FF FF FF FF FF FF FF FF FF FF FF FF FF FF FF FF FF FF FF FF FF FF FF FF FF FF FF FF FF FF FF FF FF FF FF FF FF FF FF FF FF FF FF FF FF FF FF FF FF FF FF FF FF FF FF FF FF FF FF FF FF FF FF FF FF FF 05 03 0A 08 FF 16 89 00 00 00 00 00 00 77 C2 05 03 0A 09 10 16 93 00 00 00 00 00
13:14:24.044 设备发送:05 03 05 A2 00 0F A5 64
13:14:29.050 设备接收:00 15 F2 05 03 08 00 00 40 4C 00 0D CC FE DA AA 05 03 02 00 02 C8 45 05 03 1E 04 3F 00 00 00 00 04 41 00 00 00 00 04 34 00 04 00 00 1D FE 04 D6 03 B6 17 6A 04 EA 02 F2 76 74 05 03 1E 17 52 05 0E 03 04 16 97 05 1C 02 F4 1D 75 05 09 03 CC 04 3F 00 04 00 00 04 37 00 02 00 00 CD 0B 05 03 1E 00 00 00 00 00 00 00 00 00 00 00 00 00 00 00 00 00 00 00 00 00 00 00 00 00 00 00 00 00 00 69 7B
13:14:29.064 设备发送:05 03 05 B1 00 03 54 A4
13:14:34.063 设备接收:05 03 06 00 00 00 00 00 00 13 B5
13:14:34.078 设备发送:05 03 04 2B 00 01 F4 B6
13:14:39.077 设备接收:05 03 02 01 E6 C9 9E
13:14:39.096 设备发送:05 03 04 20 00 01 85 74
13:14:44.102 设备接收:05 03 02 00 2C 48 59
13:14:44.118 设备发送:05 03 04 05 00 01 94 BF
13:14:49.143 设备接收:05 03 02 00 00 49 84
13:14:49.159 设备发送:06 03 04 84 00 04 04 A7
13:14:54.160 设备发送:06 03 04 84 00 04 04 A7
13:14:59.171 设备发送:06 03 04 84 00 04 04 A7
13:15:04.200 设备发送:06 03 04 8D 00 05 15 65
13:15:09.210 设备发送:06 03 04 8D 00 05 15 65
13:15:14.226 设备发送:06 03 04 8D 00 05 15 65
13:15:19.256 设备发送:06 03 04 98 00 05 04 A1
13:15:24.283 设备发送:06 03 04 98 00 05 04 A1
13:15:29.322 设备发送:06 03 04 98 00 05 04 A1
13:15:34.310 设备发送:06 03 04 A3 00 05 75 6C
13:15:39.326 设备发送:06 03 04 A3 00 05 75 6C
13:15:44.361 设备发送:06 03 04 A3 00 05 75 6C
13:15:49.368 设备发送:06 03 06 84 00 04 05 1F
13:15:54.397 设备发送:06 03 06 84 00 04 05 1F
13:15:59.413 设备发送:06 03 06 84 00 04 05 1F
13:16:04.427 设备发送:06 03 04 04 00 01 C5 4C
13:16:09.465 设备发送:06 03 04 04 00 01 C5 4C
13:16:14.505 设备发送:06 03 04 04 00 01 C5 4C
13:16:19.517 设备发送:06 03 05 84 00 0F 44 9C
13:16:24.523 设备发送:06 03 05 84 00 0F 44 9C
13:16:29.561 设备发送:06 03 05 84 00 0F 44 9C
13:16:34.568 设备发送:06 03 05 93 00 0F F4 98
13:16:39.582 设备发送:06 03 05 93 00 0F F4 98
13:16:44.597 设备发送:06 03 05 93 00 0F F4 98
13:16:49.637 设备发送:06 03 05 A2 00 0F A5 57
13:16:54.652 设备发送:06 03 05 A2 00 0F A5 57
13:16:59.671 设备发送:06 03 05 A2 00 0F A5 57
13:17:04.662 设备发送:06 03 05 B1 00 03 54 97
13:17:09.710 设备发送:06 03 05 B1 00 03 54 97
13:17:14.710 设备发送:06 03 05 B1 00 03 54 97
13:17:19.750 设备发送:06 03 04 2B 00 01 F4 85
13:17:24.756 设备发送:06 03 04 2B 00 01 F4 85
13:17:29.769 设备发送:06 03 04 2B 00 01 F4 85
13:17:34.813 设备发送:06 03 04 20 00 01 85 47
13:17:39.828 设备发送:06 03 04 20 00 01 85 47
13:17:44.863 设备发送:06 03 04 20 00 01 85 47
13:17:49.871 设备发送:06 03 04 05 00 01 94 8C
13:17:54.891 设备发送:06 03 04 05 00 01 94 8C
13:17:59.895 设备发送:06 03 04 05 00 01 94 8C
13:18:04.910 设备发送:01 03 04 84 00 04 05 10
13:18:09.923 设备接收:01 03 08 13 87 1D 42 FF BF 1D 42 D0 D5
13:18:09.954 设备发送:01 03 04 8D 00 05 14 D2
13:18:14.926 设备接收:01 03 0A 08 E4 2B 15 00 00 00 00 00 00 59 32
13:18:14.942 设备发送:01 03 04 98 00 05 05 16
13:18:19.953 设备接收:01 03 0A 08 E0 2B 12 00 00 00 00 00 00 1D 32
13:18:19.968 设备发送:01 03 04 A3 00 05 74 DB
13:18:24.997 设备接收:01 03 0A 08 F7 2A 07 00 00 00 00 00 00 73 CF
13:18:25.014 设备发送:01 03 06 84 00 04 04 A8
13:18:29.998 设备接收:01 03 08 00 00 67 9A 00 13 38 A3 67 A0
13:18:30.029 设备发送:01 03 04 04 00 01 C4 FB
13:18:35.033 设备接收:01 03 02 00 02 39 85
13:18:35.049 设备发送:01 03 05 84 00 0F 45 2B
13:18:40.049 设备接收:01 03 1E 19 A9 05 BC 03 C4 1A 01 05 9C 03 BC 19 E5 05 9C 03 B8 1A 37 02 BD 01 D6 1D 07 05 99 04 29 B1 EC
13:18:40.080 设备发送:01 03 05 93 00 0F F5 2F
13:18:45.066 设备接收:01 03 1E 1C C4 02 E3 02 20 1D 05 02 D6 02 1B 1C 7C 02 D5 02 10 1D 07 02 D8 02 1D 1C A8 02 D3 02 12 36 93
13:18:45.082 设备发送:01 03 05 A2 00 0F A4 E0
13:18:50.065 设备接收:01 03 1E 00 00 00 00 00 00 00 00 00 01 00 00 00 00 00 00 00 00 00 00 00 00 00 00 00 00 00 00 00 00 C8 6B
13:18:50.080 设备发送:01 03 05 B1 00 03 55 20
13:18:55.086 设备接收:01 03 06 00 00 00 00 00 00 21 75
13:18:55.102 设备发送:01 03 04 2B 00 01 F5 32
13:19:00.111 设备接收:01 03 02 01 B2 39 A1
13:19:00.142 设备发送:01 03 04 20 00 01 84 F0
13:19:05.154 设备接收:01 03 02 00 42 38 75
13:19:05.169 设备发送:01 03 04 05 00 01 95 3B
13:19:10.144 设备接收:01 03 02 00 00 B8 44
13:19:10.160 设备发送:02 03 04 84 00 04 05 23
13:19:15.173 设备接收:02 03 08 13 87 09 E7 FF E9 09 E7 BF F7
13:19:15.188 设备发送:02 03 04 8D 00 05 14 E1
13:19:20.189 设备接收:02 03 0A 09 12 0E 2C 00 00 00 00 00 00 49 B4
13:19:20.221 设备发送:02 03 04 98 00 05 05 25
13:19:25.230 设备接收:02 03 0A 09 09 0D FA 00 00 00 00 00 00 00 9C
13:19:25.245 设备发送:02 03 04 A3 00 05 74 E8
13:19:30.210 设备接收:02 03 0A 09 04 0D F5 00 00 00 00 00 00 A7 0C
13:19:30.273 设备发送:02 03 06 84 00 04 04 9B
13:19:35.271 设备接收:02 03 08 00 00 23 3C 00 07 1B 66 F6 DE
13:19:35.287 设备发送:02 03 04 04 00 01 C4 C8
13:19:40.261 设备接收:02 03 02 00 02 7D 85
13:19:40.277 设备发送:01 03 05 84 00 06 85 2D
13:19:45.291 设备接收:01 03 0C 19 D2 06 42 04 23 19 D9 06 29 04 14 FA 30
13:19:45.322 设备发送:01 03 05 8A 00 06 E4 EE
13:19:50.317 设备接收:01 03 0C 19 C0 06 30 04 14 1A 39 02 FF 02 03 BD AA
13:19:50.333 设备发送:01 03 05 90 00 06 C5 29
13:19:55.342 设备接收:01 03 0C 1D 31 06 1B 04 90 1C C5 03 21 02 4E 94 E2
13:19:55.358 设备发送:01 03 05 96 00 06 25 28
13:20:00.369 设备接收:01 03 0C 1D 2D 03 04 02 41 1C A4 03 0A 02 3B 2E 52
13:20:00.385 设备发送:01 03 05 9C 00 06 05 2A
13:20:05.372 设备接收:01 03 0C 1C B9 03 10 02 40 1C 84 03 06 02 35 14 63
13:20:05.388 设备发送:02 03 05 A2 00 06 64 D5
13:20:10.394 设备接收:02 03 0C 00 00 00 00 00 00 00 00 00 00 00 00 D0 71
13:20:10.410 设备发送:02 03 05 A8 00 06 44 D7
13:20:15.432 设备接收:02 03 0C 00 00 00 00 00 00 00 00 00 00 00 00 D0 71
13:20:15.449 设备发送:02 03 05 AE 00 06 A4 D6
13:20:20.433 设备接收:02 03 0C 00 00 00 00 00 00 00 00 00 00 00 00 D0 71
13:20:20.449 设备发送:02 03 04 2B 00 01 F5 01
13:20:25.457 设备接收:02 03 02 01 77 BD F2
13:20:25.473 设备发送:02 03 04 20 00 01 84 C3
13:20:30.481 设备接收:02 03 02 00 2B BC 5B
13:20:30.496 设备发送:02 03 04 05 00 01 95 08
13:20:35.495 设备接收:02 03 02 00 00 FC 44
13:20:35.510 设备发送:03 03 04 84 00 04 04 F2
13:20:40.503 设备接收:03 03 08 13 87 04 42 00 02 04 44 F2 C6
13:20:40.519 设备发送:03 03 04 8D 00 05 15 30
13:20:45.528 设备接收:03 03 0A 09 11 06 05 00 00 00 00 00 00 E6 A1
13:20:45.545 设备发送:03 03 04 98 00 05 04 F4
13:20:50.554 设备接收:03 03 0A 09 17 06 0F 00 00 00 00 00 00 67 01
13:20:50.570 设备发送:03 03 04 A3 00 05 75 39
13:20:55.578 设备接收:03 03 0A 09 1F 05 FD 00 00 00 00 00 00 93 1B
13:20:55.594 设备发送:03 03 06 84 00 04 05 4A
13:21:00.578 设备接收:03 03 08 00 00 10 79 00 03 48 E1 07 7D
13:21:00.625 设备发送:03 03 04 04 00 01 C5 19
13:21:05.619 设备接收:03 03 02 00 02 40 45
13:21:05.635 设备发送:03 03 05 84 00 06 84 CF
13:21:10.627 设备接收:03 03 0C 1C C4 02 D3 02 14 1C C7 02 C5 02 0B 32 25
13:21:10.658 设备发送:03 03 05 8A 00 06 E5 0C
13:21:15.668 设备接收:03 03 0C 00 0A 00 00 00 00 00 00 00 00 00 00 30 A9 FF FF FF FF
13:21:15.683 设备发送:03 03 05 90 00 06 C4 CB
13:21:20.671 设备接收:03 03 0C 00 00 00 00 00 00 00 00 00 00 00 00 11 71
13:21:20.687 设备发送:03 03 05 96 00 06 24 CA
13:21:25.697 设备接收:03 03 0C 00 00 00 00 00 00 00 00 00 00 00 00 11 71
13:21:25.712 设备发送:03 03 05 9C 00 06 04 C8
13:21:30.706 设备接收:03 03 0C 00 00 00 00 00 00 00 00 00 00 00 00 11 71
13:21:30.720 设备发送:03 03 05 A2 00 06 65 04
13:21:35.711 设备接收:03 03 0C 00 00 00 00 00 00 00 00 00 00 00 00 11 71
13:21:35.775 设备发送:03 03 05 A8 00 06 45 06
13:21:40.749 设备接收:03 03 0C 00 00 00 00 00 00 00 00 00 00 00 00 11 71
13:21:40.765 设备发送:03 03 05 AE 00 06 A5 07
13:21:45.778 设备接收:03 03 0C 00 00 00 00 00 00 00 00 00 00 00 00 11 71
13:21:45.794 设备发送:03 03 04 2B 00 01 F4 D0
13:21:50.785 设备接收:03 03 02 01 EC C1 99
13:21:50.801 设备发送:03 03 04 20 00 01 85 12
13:21:55.796 设备接收:03 03 02 00 19 00 4E
13:21:55.828 设备发送:03 03 04 05 00 01 94 D9
13:22:00.826 设备接收:03 03 02 00 00 C1 84
13:22:00.842 设备发送:04 03 04 84 00 04 05 45
13:22:05.855 设备接收:04 03 08 13 8B 0A E4 00 06 0A E4 68 5C
13:22:05.871 设备发送:04 03 04 8D 00 05 14 87
13:22:10.866 设备接收:04 03 0A 08 FF 0F 33 00 00 00 00 00 00 AF EE
13:22:10.885 设备发送:04 03 04 98 00 05 05 43
13:22:15.895 设备接收:04 03 0A 08 FB 0E E9 00 00 00 00 00 00 27 2F
13:22:15.910 设备发送:04 03 04 A3 00 05 74 8E
13:22:20.903 设备接收:04 03 0A 09 0B 0F 09 00 00 00 00 00 00 52 EC
13:22:20.919 设备发送:04 03 06 84 00 04 04 FD
13:22:25.930 设备接收:04 03 08 00 00 23 33 00 07 ED 42 FB EC
13:22:25.945 设备发送:04 03 04 04 00 01 C4 AE
13:22:30.941 设备接收:04 03 02 00 02 F5 85
13:22:30.957 设备发送:04 03 05 84 00 0F 45 7E
13:22:35.959 设备接收:04 03 1E 03 F2 00 06 00 00 03 E4 00 00 00 00 18 AE 05 D8 03 B1 16 CD 02 F6 01 BA 03 F2 00 00 00 00 CB F9
13:22:35.989 设备发送:04 03 05 93 00 0F F5 7A
13:22:40.995 设备接收:04 03 1E 1A 12 02 DE 01 EA 19 9C 03 05 01 FB 1B 48 02 F9 02 14 03 F5 00 02 00 00 03 F4 00 00 00 00 84 59
13:22:41.010 设备发送:04 03 05 A2 00 0F A4 B5
13:22:46.006 设备接收:04 03 1E 00 09 00 00 00 00 00 08 00 02 00 00 00 00 00 00 00 00 00 00 00 00 00 00 00 00 00 00 00 00 80 F0
13:22:46.021 设备发送:04 03 05 B1 00 03 55 75
13:22:51.011 设备接收:04 03 06 00 00 00 00 00 00 1E 25
13:22:51.058 设备发送:04 03 04 2B 00 01 F5 67
13:22:56.057 设备接收:04 03 02 02 60 75 0C
13:22:56.073 设备发送:04 03 04 20 00 01 84 A5
13:23:01.068 设备接收:04 03 02 00 34 75 93
13:23:01.084 设备发送:04 03 04 05 00 01 95 6E
13:23:06.096 设备接收:04 03 02 00 00 74 44
13:23:06.105 设备发送:05 03 04 84 00 04 04 94
13:23:11.125 设备接收:05 03 08 13 86 12 DE FF CC 12 DE F1 84
13:23:11.140 设备发送:05 03 04 8D 00 05 15 56
13:23:16.134 设备接收:05 03 0A 09 10 1B 3B 00 00 00 00 00 00 FD A1
13:23:16.150 设备发送:05 03 04 98 00 05 04 92
13:23:21.136 设备接收:05 03 0A 09 04 1B 81 00 00 00 00 00 00 19 6A
13:23:21.151 设备发送:05 03 04 A3 00 05 75 5F
13:23:26.161 设备接收:05 03 0A 09 16 1B FA 00 00 00 00 00 00 06 CD
13:23:26.177 设备发送:05 03 06 84 00 04 05 2C
13:23:31.188 设备接收:05 03 08 00 00 43 13 00 0D CD 45 0F 77
13:23:31.204 设备发送:05 03 04 04 00 01 C5 7F
13:23:36.218 设备接收:05 03 02 00 02 C8 45
13:23:36.251 设备发送:05 03 05 84 00 0F 44 AF
13:23:41.218 设备接收:05 03 1E 04 3A 00 00 00 00 04 3B 00 00 00 00 04 2F 00 04 00 00 1D AE 05 B3 04 55 16 F1 05 D5 03 6D 11 C7
13:23:41.233 设备发送:05 03 05 93 00 0F F4 AB
13:23:46.237 设备接收:05 03 1E 17 04 05 E7 03 7A 16 BC 05 DD 03 6A 1D 28 05 E5 04 66 04 39 00 03 00 00 04 33 00 04 00 00 6D 66
13:23:46.253 设备发送:05 03 05 A2 00 0F A5 64
13:23:51.300 设备接收:05 03 1E 00 00 00 00 00 00 00 00 00 00 00 00 00 00 00 00 00 00 00 00 00 00 00 00 00 00 00 00 00 00 69 7B
13:23:51.315 设备发送:05 03 05 B1 00 03 54 A4
13:23:56.308 设备接收:05 03 06 00 00 00 00 00 00 13 B5
13:23:56.323 设备发送:05 03 04 2B 00 01 F4 B6
13:24:01.340 设备接收:05 03 02 01 E6 C9 9E
13:24:01.356 设备发送:05 03 04 20 00 01 85 74
13:24:06.337 设备接收:05 03 02 00 30 49 90
13:24:06.367 设备发送:05 03 04 05 00 01 94 BF
13:24:11.362 设备接收:05 03 02 00 00 49 84
13:24:11.381 设备发送:06 03 04 84 00 04 04 A7
13:24:16.407 设备发送:06 03 04 84 00 04 04 A7
13:24:21.419 设备发送:06 03 04 84 00 04 04 A7
13:24:26.441 设备发送:06 03 04 8D 00 05 15 65
13:24:31.449 设备发送:06 03 04 8D 00 05 15 65
13:24:36.502 设备发送:06 03 04 8D 00 05 15 65
13:24:41.496 设备发送:06 03 04 98 00 05 04 A1
13:24:46.520 设备发送:06 03 04 98 00 05 04 A1
13:24:51.524 设备发送:06 03 04 98 00 05 04 A1
13:24:56.549 设备发送:06 03 04 A3 00 05 75 6C
13:25:01.588 设备发送:06 03 04 A3 00 05 75 6C
13:25:06.618 设备发送:06 03 04 A3 00 05 75 6C
13:25:11.625 设备发送:06 03 06 84 00 04 05 1F
13:25:16.647 设备发送:06 03 06 84 00 04 05 1F
13:25:21.638 设备发送:06 03 06 84 00 04 05 1F
13:25:26.670 设备发送:06 03 04 04 00 01 C5 4C
13:25:31.679 设备发送:06 03 04 04 00 01 C5 4C
13:25:36.710 设备发送:06 03 04 04 00 01 C5 4C
13:25:41.721 设备发送:06 03 05 84 00 0F 44 9C
13:25:46.741 设备发送:06 03 05 84 00 0F 44 9C
13:25:51.766 设备发送:06 03 05 84 00 0F 44 9C
13:25:56.809 设备发送:06 03 05 93 00 0F F4 98
13:26:01.822 设备发送:06 03 05 93 00 0F F4 98
13:26:06.817 设备发送:06 03 05 93 00 0F F4 98
13:26:11.855 设备发送:06 03 05 A2 00 0F A5 57
13:26:16.880 设备发送:06 03 05 A2 00 0F A5 57
13:26:21.886 设备发送:06 03 05 A2 00 0F A5 57
13:26:26.900 设备发送:06 03 05 B1 00 03 54 97
13:26:31.926 设备发送:06 03 05 B1 00 03 54 97
13:26:36.938 设备发送:06 03 05 B1 00 03 54 97
13:26:41.986 设备发送:06 03 04 2B 00 01 F4 85
13:26:47.007 设备发送:06 03 04 2B 00 01 F4 85
13:26:51.985 设备发送:06 03 04 2B 00 01 F4 85
13:26:57.018 设备发送:06 03 04 20 00 01 85 47
13:27:02.051 设备发送:06 03 04 20 00 01 85 47
13:27:07.078 设备发送:06 03 04 20 00 01 85 47
13:27:12.105 设备发送:06 03 04 05 00 01 94 8C
13:27:17.100 设备发送:06 03 04 05 00 01 94 8C
13:27:22.138 设备发送:06 03 04 05 00 01 94 8C
13:27:27.160 设备发送:01 03 04 84 00 04 05 10
13:27:32.163 设备接收:01 03 08 13 85 1E 2E 00 33 1E 2E 92 0D
13:27:32.179 设备发送:01 03 04 8D 00 05 14 D2
13:27:37.174 设备接收:01 03 0A 08 F3 2B B2 00 00 00 00 00 00 64 08
13:27:37.190 设备发送:01 03 04 98 00 05 05 16
13:27:42.186 设备接收:01 03 0A 08 E8 2C A2 00 00 00 00 00 00 8A DF
13:27:42.202 设备发送:01 03 04 A3 00 05 74 DB
13:27:47.213 设备接收:01 03 0A 09 04 2D 22 00 00 00 00 00 00 07 DA
13:27:47.231 设备发送:01 03 06 84 00 04 04 A8
13:27:52.213 设备接收:01 03 08 00 00 6C 17 00 13 39 16 8A E3
13:27:52.244 设备发送:01 03 04 04 00 01 C4 FB
13:27:57.252 设备接收:01 03 02 00 02 39 85
13:27:57.267 设备发送:01 03 05 84 00 0F 45 2B
13:28:02.268 设备接收:01 03 1E 19 F9 06 96 04 61 1A 02 06 81 04 54 19 C2 06 8C 04 51 1A 11 03 35 02 24 1D 0A 06 85 04 D9 A9 2D
13:28:02.283 设备发送:01 03 05 93 00 0F F5 2F
13:28:07.291 设备接收:01 03 1E 1C ED 03 58 02 7A 1D 07 03 4E 02 75 1C 7E 03 48 02 65 1C 90 03 5A 02 73 1C FB 03 3D 02 67 5A 18
13:28:07.306 设备发送:01 03 05 A2 00 0F A4 E0
13:28:12.313 设备接收:01 03 1E 00 00 00 00 00 00 00 00 00 00 00 00 00 00 00 00 00 00 00 00 00 00 00 00 00 00 00 00 00 00 D8 BA
13:28:12.329 设备发送:01 03 05 B1 00 03 55 20
13:28:17.318 设备接收:01 03 06 00 00 00 00 00 00 21 75
13:28:17.333 设备发送:01 03 04 2B 00 01 F5 32
13:28:22.356 设备接收:01 03 02 01 B2 39 A1
13:28:22.372 设备发送:01 03 04 20 00 01 84 F0
13:28:27.349 设备接收:01 03 02 00 42 38 75
13:28:27.380 设备发送:01 03 04 05 00 01 95 3B
13:28:32.394 设备接收:01 03 02 00 00 B8 44
13:28:32.409 设备发送:02 03 04 84 00 04 05 23
13:28:37.425 设备接收:02 03 08 13 88 0A 72 FF D4 0A 75 5C 48
13:28:37.440 设备发送:02 03 04 8D 00 05 14 E1
13:28:42.411 设备接收:02 03 0A 09 19 0F 26 00 00 00 00 00 00 51 48
13:28:42.426 设备发送:02 03 04 98 00 05 05 25
13:28:47.462 设备发送:02 03 04 98 00 05 05 25
13:28:52.471 设备接收:02 03 0A 09 11 0F 39 00 00 00 00 00 00 D8 49 FF FF FF FF FF FF FF FF FF FF FF FF FF FF FF FF FF FF FF FF FF FF FF FF FF FF FF FF FF FF FF FF FF FF FF FF FF FF FF FF FF FF FF FF FF FF FF FF FF FF FF FF FF FF FF FF FF FF FF FF FF FF FF FF FF FF FF FF FF FF FF FF FF FF FF FF FF FF FF FF FF FF FF FF FF FF FF FF FF FF FF FF FF FF FF FF FF FF FF FF FF FF FF FF FF FF FF FF FF FF FF FF FF FF FF FF FF FF FF FF FF FF FF FF FF FF FF FF FF FF FF FF FF FF FF
13:28:52.486 设备发送:02 03 04 A3 00 05 74 E8
13:28:57.491 设备接收:FF FF FF FF FF FF FF FF FF FF FF FF FF FF FF FF FF FF FF FF FF FF FF FF FF FF FF FF FF FF FF FF FF FF FF FF FF FF FF FF FF FF FF FF FF FF FF FF FF FF FF FF FF FF FF FF FF FF FF FF FF FF FF FF FF FF FF FF FF FF FF FF FF FF FF FF FF FF FF FF FF FF FF FF FF FF FF FF FF FF FF FF FF FF FF FF FF FF FF FF FF FF FF FF FF FF FF FF FF FF FF FF FF FF FF FF FF FF FF FF FF FF FF FF FF FF FF FF FF FF FF FF FF FF FF FF FF FF FF FF FF FF FF FF FF FF FF FF FF FF
13:28:57.522 设备发送:02 03 06 84 00 04 04 9B
13:29:02.497 设备接收:FF FF FF FF FF FF FF FF FF FF FF FF FF FF FF FF FF FF FF FF FF FF FF FF FF FF FF FF FF FF FF FF FF FF FF FF FF FF FF FF FF FF FF FF FF FF FF FF FF FF FF FF FF FF FF FF FF FF FF FF FF FF FF FF FF FF FF FF FF FF FF FF FF FF FF FF FF FF FF FF FF FF FF FF FF FF FF FF FF FF FF FF FF FF FF FF FF FF FF FF FF FF FF FF FF FF FF FF FF FF FF FF FF FF FF FF FF FF FF FF FF FF FF FF FF FF FF FF FF FF FF FF FF FF FF FF FF FF FF FF FF FF FF FF FF FF FF FF FF FF
13:29:02.529 设备发送:02 03 04 04 00 01 C4 C8
13:29:07.544 设备接收:FF FF FF FF FF FF FF FF FF FF FF FF FF FF FF FF FF FF FF FF FF FF FF FF FF FF FF FF FF FF FF FF FF FF FF FF FF FF FF FF FF FF FF FF FF FF FF FF FF FF FF FF FF FF FF FF FF FF FF FF FF FF FF FF FF FF FF FF FF FF FF FF FF FF FF FF FF FF FF FF FF FF FF FF FF FF FF FF FF FF FF FF FF FF FF FF FF FF FF FF FF FF FF FF FF FF FF FF FF FF FF FF FF FF FF FF FF FF FF FF FF FF FF FF FF FF FF FF FF FF FF FF FF FF FF FF FF FF FF FF FF FF FF FF FF FF FF FF FF FF
13:29:07.558 设备发送:01 03 05 84 00 06 85 2D
13:29:12.538 设备接收:FF FF FF FF FF FF FF FF FF FF FF FF FF FF FF FF FF FF FF FF FF FF FF FF FF FF FF FF FF FF FF FF FF FF FF FF FF FF FF FF FF FF FF FF FF FF FF FF FF FF FF FF FF FF FF FF FF FF FF FF FF FF FF FF FF FF FF FF FF FF FF FF FF FF FF FF FF FF FF FF FF FF FF FF FF FF FF FF FF FF FF FF FF FF FF FF FF FF FF FF FF FF FF FF FF FF FF FF FF FF FF FF FF FF FF FF FF FF FF FF FF FF FF FF FF FF FF FF FF FF FF FF FF FF FF FF FF FF FF FF FF FF FF FF FF FF FF FF FF FF
13:29:12.569 设备发送:01 03 05 8A 00 06 E4 EE
13:29:17.548 设备接收:FF FF FF FF FF FF FF FF FF FF FF FF FF FF FF FF FF FF FF FF FF FF FF FF FF FF FF FF FF FF FF FF FF FF FF FF FF FF FF FF FF FF FF FF FF FF FF FF FF FF FF FF FF FF FF FF FF FF FF FF FF FF FF FF FF FF FF FF FF FF FF FF FF FF FF FF FF FF FF FF FF FF FF FF FF FF FF FF FF FF FF FF FF FF FF FF FF FF FF FF FF FF FF FF FF FF FF FF FF FF FF FF FF FF FF FF FF FF FF FF FF FF FF FF FF FF FF FF FF FF FF FF FF FF FF FF FF FF FF FF FF FF FF FF FF FF FF FF FF FF
13:29:17.595 设备发送:01 03 05 90 00 06 C5 29
13:29:20.69600

