
10:13:16.182 设备接收:01 03 1E 00 00 00 00 00 00 00 00 00 01 00 00 00 00 00 00 00 00 00 00 00 00 00 00 00 00 00 00 00 00 C8 6B
10:13:16.198 设备发送:01 03 05 B1 00 03 55 20
10:13:21.180 设备接收:01 03 06 00 00 00 00 00 00 21 75
10:13:21.202 设备发送:01 03 04 2B 00 01 F5 32
10:13:26.220 设备接收:01 03 02 02 DE 39 7C
10:13:26.230 设备发送:01 03 04 20 00 01 84 F0
10:13:31.240 设备接收:01 03 02 00 3E 39 94
10:13:31.251 设备发送:01 03 04 05 00 01 95 3B
10:13:36.261 设备接收:01 03 02 00 00 B8 44
10:13:36.280 设备发送:02 03 04 84 00 04 05 23
10:13:41.282 设备接收:02 03 08 13 8C 09 D1 FF EA 09 D1 BD 25
10:13:41.293 设备发送:02 03 04 8D 00 05 14 E1
10:13:46.291 设备接收:02 03 0A 09 2A 0D ED 00 00 00 00 00 00 EA AC
10:13:46.310 设备发送:02 03 04 98 00 05 05 25
10:13:51.324 设备接收:02 03 0A 09 25 0E 06 00 00 00 00 00 00 B0 47
10:13:51.345 设备发送:02 03 04 A3 00 05 74 E8
10:13:56.338 设备接收:02 03 0A 09 1F 0D FA 00 00 00 00 00 00 E6 FC
10:13:56.348 设备发送:02 03 06 84 00 04 04 9B
10:14:01.367 设备接收:02 03 08 00 00 0B 82 00 07 24 15 88 F8
10:14:01.387 设备发送:02 03 04 04 00 01 C4 C8
10:14:06.381 设备接收:02 03 02 00 02 7D 85
10:14:06.402 设备发送:01 03 05 84 00 06 85 2D
10:14:11.419 设备接收:01 03 0C 1A A0 05 F9 04 12 1A A3 05 FD 04 15 91 33
10:14:11.431 设备发送:01 03 05 8A 00 06 E4 EE
10:14:16.424 设备接收:01 03 0C 1A 53 06 05 04 0E 1C C9 01 AD 01 3C 3A 7E
10:14:16.444 设备发送:01 03 05 90 00 06 C5 29
10:14:21.450 设备接收:01 03 0C 1D DD 05 E9 04 85 1D DE 02 FC 02 48 21 CC
10:14:21.461 设备发送:01 03 05 96 00 06 25 28
10:14:26.459 设备接收:01 03 0C 1D C1 02 FE 02 47 1D 9A 02 ED 02 37 92 7A
10:14:26.482 设备发送:01 03 05 9C 00 06 05 2A
10:14:31.499 设备接收:01 03 0C 1D ED 02 F7 02 45 1D B2 02 F9 02 42 AE 9F
10:14:31.518 设备发送:02 03 05 A2 00 06 64 D5
10:14:36.513 设备接收:02 03 0C 00 00 00 00 00 00 00 00 00 00 00 00 D0 71
10:14:36.534 设备发送:02 03 05 A8 00 06 44 D7
10:14:41.517 设备接收:02 03 0C 00 00 00 00 00 00 00 00 00 00 00 00 D0 71
10:14:41.537 设备发送:02 03 05 AE 00 06 A4 D6
10:14:46.553 设备接收:02 03 0C 00 00 00 00 00 00 00 00 00 00 00 00 D0 71
10:14:46.573 设备发送:02 03 04 2B 00 01 F5 01
10:14:51.562 设备接收:02 03 02 01 D6 7C 4A
10:14:51.571 设备发送:02 03 04 20 00 01 84 C3
10:14:56.585 设备接收:02 03 02 00 24 FC 5F
10:14:56.595 设备发送:02 03 04 05 00 01 95 08
10:15:01.621 设备接收:02 03 02 00 00 FC 44
10:15:01.632 设备发送:03 03 04 84 00 04 04 F2
10:15:06.638 设备接收:03 03 08 13 86 04 62 00 02 04 64 62 19
10:15:06.649 设备发送:03 03 04 8D 00 05 15 30
10:15:11.658 设备接收:03 03 0A 09 37 06 2F 00 00 00 00 00 00 DF 02
10:15:11.667 设备发送:03 03 04 98 00 05 04 F4
10:15:16.659 设备接收:03 03 0A 09 33 06 35 00 00 00 00 00 00 56 03
10:15:16.672 设备发送:03 03 04 A3 00 05 75 39
10:15:21.687 设备接收:03 03 0A 09 3E 06 38 00 00 00 00 00 00 D2 53
10:15:21.708 设备发送:03 03 06 84 00 04 05 4A
10:15:26.712 设备接收:03 03 08 00 00 05 FF 00 03 4C EB 0E A1
10:15:26.721 设备发送:03 03 04 04 00 01 C5 19
10:15:31.716 设备接收:03 03 02 00 02 40 45
10:15:31.734 设备发送:03 03 05 84 00 06 84 CF
10:15:36.768 设备接收:03 03 0C 1D C0 02 F5 02 40 1D 5F 02 F9 02 3C DC A5
10:15:36.780 设备发送:03 03 05 8A 00 06 E5 0C
10:15:41.763 设备接收:03 03 0C 00 0B 00 00 00 00 00 00 00 00 00 00 34 55
10:15:41.784 设备发送:03 03 05 90 00 06 C4 CB
10:15:46.796 设备接收:03 03 0C 00 00 00 00 00 00 00 00 00 00 00 00 11 71
10:15:46.819 设备发送:03 03 05 96 00 06 24 CA
10:15:51.810 设备接收:03 03 0C 00 00 00 00 00 00 00 00 00 00 00 00 11 71
10:15:51.820 设备发送:03 03 05 9C 00 06 04 C8
10:15:56.847 设备接收:03 03 0C 00 00 00 00 00 00 00 00 00 00 00 00 11 71
10:15:56.869 设备发送:03 03 05 A2 00 06 65 04
10:16:01.829 设备接收:03 03 0C 00 00 00 00 00 00 00 00 00 00 00 00 11 71
10:16:01.880 设备发送:03 03 05 A8 00 06 45 06
10:16:06.881 设备接收:03 03 0C 00 00 00 00 00 00 00 00 00 00 00 00 11 71
10:16:06.893 设备发送:03 03 05 AE 00 06 A5 07
10:16:11.878 设备接收:03 03 0C 00 00 00 00 00 00 00 00 00 00 00 00 11 71
10:16:11.922 设备发送:03 03 04 2B 00 01 F4 D0
10:16:16.896 设备接收:03 03 02 02 67 81 0E
10:16:16.936 设备发送:03 03 04 20 00 01 85 12
10:16:21.916 设备接收:03 03 02 00 19 00 4E
10:16:21.938 设备发送:03 03 04 05 00 01 94 D9
10:16:26.964 设备接收:03 03 02 00 00 C1 84
10:16:26.972 设备发送:04 03 04 84 00 04 05 45
10:16:31.959 设备接收:04 03 08 13 89 0A 87 FF BC 0A 88 9E 48
10:16:31.981 设备发送:04 03 04 8D 00 05 14 87
10:16:36.980 设备接收:04 03 0A 09 25 0F 1D 00 00 00 00 00 00 D3 4C
10:16:36.993 设备发送:04 03 04 98 00 05 05 43
10:16:42.023 设备接收:04 03 0A 09 1D 0F 13 00 00 00 00 00 00 0F 4D
10:16:42.043 设备发送:04 03 04 A3 00 05 74 8E
10:16:47.023 设备接收:04 03 0A 09 24 0F 1E 00 00 00 00 00 00 ED DC
10:16:47.035 设备发送:04 03 06 84 00 04 04 FD
10:16:52.050 设备接收:04 03 08 00 00 06 09 00 07 F5 D8 AE B7
10:16:52.062 设备发送:04 03 04 04 00 01 C4 AE
10:16:57.070 设备接收:04 03 02 00 02 F5 85
10:16:57.091 设备发送:04 03 05 84 00 0F 45 7E
10:17:02.101 设备接收:04 03 1E 03 E6 00 02 00 00 03 D8 00 00 00 00 17 9A 05 D3 03 85 14 54 02 F9 01 8C 03 E5 00 00 00 00 1F 2A
10:17:02.112 设备发送:04 03 05 93 00 0F F5 7A
10:17:07.091 设备接收:04 03 1E 19 B3 02 E8 01 E9 1A 0F 02 F6 01 F9 1B 70 02 F1 02 11 03 E9 00 04 00 00 03 E9 00 01 00 00 B9 B1
10:17:07.112 设备发送:04 03 05 A2 00 0F A4 B5
10:17:12.146 设备接收:04 03 1E 00 09 00 00 00 00 00 08 00 01 00 00 00 00 00 00 00 00 00 00 00 00 00 00 00 00 00 00 00 00 B3 C3
10:17:12.156 设备发送:04 03 05 B1 00 03 55 75
10:17:17.145 设备接收:04 03 06 00 00 00 00 00 00 1E 25
10:17:17.165 设备发送:04 03 04 2B 00 01 F5 67
10:17:22.176 设备接收:04 03 02 02 EC 74 A9
10:17:22.187 设备发送:04 03 04 20 00 01 84 A5
10:17:27.211 设备接收:04 03 02 00 20 75 9C
10:17:27.221 设备发送:04 03 04 05 00 01 95 6E
10:17:32.231 设备接收:04 03 02 00 00 74 44
10:17:32.242 设备发送:05 03 04 84 00 04 04 94
10:17:37.240 设备接收:05 03 08 13 89 13 0C FF 82 13 0D 97 5D
10:17:37.250 设备发送:05 03 04 8D 00 05 15 56
10:17:42.262 设备接收:05 03 0A 09 2B 1B 16 00 00 00 00 00 00 27 92
10:17:42.272 设备发送:05 03 04 98 00 05 04 92
10:17:47.261 设备接收:05 03 0A 09 26 1B 08 00 00 00 00 00 00 81 03
10:17:47.282 设备发送:05 03 04 A3 00 05 75 5F
10:17:52.303 设备接收:05 03 0A 09 33 1B 1D 00 00 00 00 00 00 37 52
10:17:52.324 设备发送:05 03 06 84 00 04 05 2C
10:17:57.306 设备接收:05 03 08 00 00 13 FD 00 0D DD 58 26 F9
10:17:57.326 设备发送:05 03 04 04 00 01 C5 7F
10:18:02.328 设备接收:05 03 02 00 02 C8 45
10:18:02.349 设备发送:05 03 05 84 00 0F 44 AF
10:18:07.370 设备接收:05 03 1E 04 51 00 01 00 00 04 52 00 00 00 00 04 45 00 00 00 00 1E 68 05 CF 04 85 17 DA 05 E8 03 9B 92 73
10:18:07.381 设备发送:05 03 05 93 00 0F F4 AB
10:18:12.391 设备接收:05 03 1E 17 D8 05 FA 03 A6 17 31 05 F1 03 87 1E 0C 05 EA 04 8D 04 4F 00 04 00 00 04 4B 00 03 00 00 E2 2B
10:18:12.402 设备发送:05 03 05 A2 00 0F A5 64
10:18:17.406 设备接收:05 03 1E 00 00 00 00 00 00 00 00 00 00 00 00 00 00 00 00 00 00 00 00 00 00 00 00 00 00 00 00 00 00 69 7B
10:18:17.424 设备发送:05 03 05 B1 00 03 54 A4
10:18:22.434 设备接收:05 03 06 00 00 00 00 00 00 13 B5
10:18:22.444 设备发送:05 03 04 2B 00 01 F4 B6
10:18:27.438 设备接收:05 03 02 02 E9 89 6A
10:18:27.451 设备发送:05 03 04 20 00 01 85 74
10:18:32.461 设备接收:05 03 02 00 30 49 90
10:18:32.483 设备发送:05 03 04 05 00 01 94 BF
10:18:37.475 设备接收:05 03 02 00 00 49 84
10:18:37.515 设备发送:06 03 04 84 00 04 04 A7
10:18:42.518 设备发送:06 03 04 84 00 04 04 A7
10:18:47.548 设备发送:06 03 04 84 00 04 04 A7
10:18:52.567 设备发送:06 03 04 8D 00 05 15 65
10:18:57.582 设备发送:06 03 04 8D 00 05 15 65
10:19:02.590 设备发送:06 03 04 8D 00 05 15 65
10:19:07.617 设备发送:06 03 04 98 00 05 04 A1
10:19:12.637 设备发送:06 03 04 98 00 05 04 A1
10:19:17.664 设备发送:06 03 04 98 00 05 04 A1
10:19:22.694 设备发送:06 03 04 A3 00 05 75 6C
10:19:27.693 设备发送:06 03 04 A3 00 05 75 6C
10:19:32.729 设备发送:06 03 04 A3 00 05 75 6C
10:19:37.750 设备发送:06 03 06 84 00 04 05 1F
10:19:42.770 设备发送:06 03 06 84 00 04 05 1F
10:19:47.786 设备发送:06 03 06 84 00 04 05 1F
10:19:52.796 设备发送:06 03 04 04 00 01 C5 4C
10:19:57.834 设备发送:06 03 04 04 00 01 C5 4C
10:20:02.852 设备发送:06 03 04 04 00 01 C5 4C
10:20:07.852 设备发送:06 03 05 84 00 0F 44 9C
10:20:12.872 设备发送:06 03 05 84 00 0F 44 9C
10:20:17.904 设备发送:06 03 05 84 00 0F 44 9C
10:20:22.919 设备发送:06 03 05 93 00 0F F4 98
10:20:27.941 设备发送:06 03 05 93 00 0F F4 98
10:20:32.975 设备发送:06 03 05 93 00 0F F4 98
10:20:37.966 设备发送:06 03 05 A2 00 0F A5 57
10:20:42.984 设备发送:06 03 05 A2 00 0F A5 57
10:20:48.008 设备发送:06 03 05 A2 00 0F A5 57
10:20:53.033 设备发送:06 03 05 B1 00 03 54 97
10:20:58.068 设备发送:06 03 05 B1 00 03 54 97
10:21:03.060 设备发送:06 03 05 B1 00 03 54 97
10:21:08.089 设备发送:06 03 04 2B 00 01 F4 85
10:21:13.108 设备发送:06 03 04 2B 00 01 F4 85
10:21:18.131 设备发送:06 03 04 2B 00 01 F4 85
10:21:23.173 设备发送:06 03 04 20 00 01 85 47
10:21:28.200 设备发送:06 03 04 20 00 01 85 47
10:21:33.200 设备发送:06 03 04 20 00 01 85 47
10:21:38.227 设备发送:06 03 04 05 00 01 94 8C
10:21:43.256 设备发送:06 03 04 05 00 01 94 8C
10:21:48.267 设备发送:06 03 04 05 00 01 94 8C
10:21:53.295 设备发送:01 03 04 84 00 04 05 10
10:21:58.278 设备接收:01 03 08 13 8C 1D 4E FF C5 1D 4E 5B C8
10:21:58.288 设备发送:01 03 04 8D 00 05 14 D2
10:22:03.288 设备接收:01 03 0A 09 0A 2A 38 00 00 00 00 00 00 B1 9D
10:22:03.300 设备发送:01 03 04 98 00 05 05 16
10:22:08.326 设备接收:01 03 0A 09 02 2A 45 00 00 00 00 00 00 7B 5A
10:22:08.348 设备发送:01 03 04 A3 00 05 74 DB
10:22:13.335 设备接收:01 03 0A 09 17 2A 48 00 00 00 00 00 00 55 0A
10:22:13.345 设备发送:01 03 06 84 00 04 04 A8
10:22:18.348 设备接收:01 03 08 00 00 25 ED 00 13 52 A9 32 2E
10:22:18.367 设备发送:01 03 04 04 00 01 C4 FB
10:22:23.380 设备接收:01 03 02 00 02 39 85
10:22:23.392 设备发送:01 03 05 84 00 0F 45 2B
10:22:28.414 设备接收:01 03 1E 1A 7C 06 38 04 37 1A A7 06 36 04 3D 1A 7E 06 3A 04 39 1C 54 01 F2 01 69 1E 05 06 1A 04 B0 F1 FB
10:22:28.433 设备发送:01 03 05 93 00 0F F5 2F
10:22:33.431 设备接收:01 03 1E 1D B5 03 1A 02 5C 1D BF 03 19 02 5C 1D 97 03 06 02 4A 1D C6 03 15 02 59 1E 04 03 0D 02 58 0E 91
10:22:33.442 设备发送:01 03 05 A2 00 0F A4 E0
10:22:38.436 设备接收:01 03 1E 00 00 00 00 00 00 00 00 00 01 00 00 00 00 00 00 00 00 00 00 00 00 00 00 00 00 00 00 00 00 C8 6B
10:22:38.456 设备发送:01 03 05 B1 00 03 55 20
10:22:43.463 设备接收:01 03 06 00 00 00 00 00 00 21 75
10:22:43.484 设备发送:01 03 04 2B 00 01 F5 32
10:22:48.488 设备接收:01 03 02 02 DE 39 7C
10:22:48.508 设备发送:01 03 04 20 00 01 84 F0
10:22:53.489 设备接收:01 03 02 00 42 38 75
10:22:53.509 设备发送:01 03 04 05 00 01 95 3B
10:22:58.521 设备接收:01 03 02 00 00 B8 44
10:22:58.532 设备发送:02 03 04 84 00 04 05 23
10:23:03.537 设备接收:02 03 08 13 8C 0A 3C FF BE 0A 3E 11 AD
10:23:03.549 设备发送:02 03 04 8D 00 05 14 E1
10:23:08.561 设备接收:02 03 0A 09 2B 0E 93 00 00 00 00 00 00 39 2E
10:23:08.580 设备发送:02 03 04 98 00 05 05 25
10:23:13.563 设备接收:02 03 0A 09 26 0E A8 00 00 00 00 00 00 EB 7D
10:23:13.616 设备发送:02 03 04 A3 00 05 74 E8
10:23:18.584 设备接收:02 03 0A 09 1E 0E 9C 00 00 00 00 00 00 AD 7F
10:23:18.606 设备发送:02 03 06 84 00 04 04 9B
10:23:23.620 设备接收:02 03 08 00 00 0D 12 00 07 24 3D 48 9D
10:23:23.630 设备发送:02 03 04 04 00 01 C4 C8
10:23:28.640 设备接收:02 03 02 00 02 7D 85
10:23:28.660 设备发送:01 03 05 84 00 06 85 2D
10:23:33.660 设备接收:01 03 0C 1A A3 06 40 04 43 1A 7E 06 4B 04 45 7C A7
10:23:33.672 设备发送:01 03 05 8A 00 06 E4 EE
10:23:38.685 设备接收:01 03 0C 1A 7A 06 4A 04 43 1B D9 02 0C 01 75 02 31
10:23:38.707 设备发送:01 03 05 90 00 06 C5 29
10:23:43.712 设备接收:01 03 0C 1E 05 06 25 04 B9 1E 04 03 1A 02 62 96 56
10:23:43.723 设备发送:01 03 05 96 00 06 25 28
10:23:48.727 设备接收:01 03 0C 1D E9 03 1D 02 62 1D C0 03 08 02 4F A3 CD
10:23:48.738 设备发送:01 03 05 9C 00 06 05 2A
10:23:53.761 设备接收:01 03 0C 1D 9E 03 23 02 61 1D 8A 03 23 02 5F D0 13
10:23:53.781 设备发送:02 03 05 A2 00 06 64 D5
10:23:58.784 设备接收:02 03 0C 00 00 00 00 00 00 00 00 00 00 00 00 D0 71
10:23:58.804 设备发送:02 03 05 A8 00 06 44 D7
10:24:03.793 设备接收:02 03 0C 00 00 00 00 00 00 00 00 00 00 00 00 D0 71
10:24:03.804 设备发送:02 03 05 AE 00 06 A4 D6
10:24:08.818 设备接收:02 03 0C 00 00 00 00 00 00 00 00 00 00 00 00 D0 71
10:24:08.829 设备发送:02 03 04 2B 00 01 F5 01
10:24:13.830 设备接收:02 03 02 01 D6 7C 4A
10:24:13.841 设备发送:02 03 04 20 00 01 84 C3
10:24:18.840 设备接收:02 03 02 00 25 3D 9F
10:24:18.861 设备发送:02 03 04 05 00 01 95 08
10:24:23.861 设备接收:02 03 02 00 00 FC 44
10:24:23.869 设备发送:03 03 04 84 00 04 04 F2
10:24:28.889 设备接收:03 03 08 13 8B 04 92 00 01 04 94 0E 88
10:24:28.898 设备发送:03 03 04 8D 00 05 15 30
10:24:33.895 设备接收:03 03 0A 09 31 06 72 00 00 00 00 00 00 78 67
10:24:33.915 设备发送:03 03 04 98 00 05 04 F4
10:24:38.932 设备接收:03 03 0A 09 35 06 72 00 00 00 00 00 00 4A A7
10:24:38.942 设备发送:03 03 04 A3 00 05 75 39
10:24:43.936 设备接收:03 03 0A 09 3E 06 7B 00 00 00 00 00 00 A0 97
10:24:43.956 设备发送:03 03 06 84 00 04 05 4A
10:24:48.971 设备接收:03 03 08 00 00 06 B2 00 03 4C FD A3 52
10:24:48.979 设备发送:03 03 04 04 00 01 C5 19
10:24:53.990 设备接收:03 03 02 00 02 40 45
10:24:54.012 设备发送:03 03 05 84 00 06 84 CF
10:24:59.017 设备接收:03 03 0C 1D 98 03 1C 02 5B 1D 87 03 13 02 53 EE A3
10:24:59.027 设备发送:03 03 05 8A 00 06 E5 0C
10:25:04.033 设备接收:03 03 0C 00 0B 00 00 00 00 00 00 00 00 00 00 34 55
10:25:04.056 设备发送:03 03 05 90 00 06 C4 CB
10:25:09.042 设备接收:03 03 0C 00 00 00 00 00 00 00 00 00 00 00 00 11 71
10:25:09.062 设备发送:03 03 05 96 00 06 24 CA
10:25:14.055 设备接收:03 03 0C 00 00 00 00 00 00 00 00 00 00 00 00 11 71
10:25:14.075 设备发送:03 03 05 9C 00 06 04 C8
10:25:19.089 设备接收:03 03 0C 00 00 00 00 00 00 00 00 00 00 00 00 11 71
10:25:19.112 设备发送:03 03 05 A2 00 06 65 04
10:25:24.101 设备接收:03 03 0C 00 00 00 00 00 00 00 00 00 00 00 00 11 71
10:25:24.121 设备发送:03 03 05 A8 00 06 45 06
10:25:29.142 设备接收:03 03 0C 00 00 00 00 00 00 00 00 00 00 00 00 11 71
10:25:29.155 设备发送:03 03 05 AE 00 06 A5 07
10:25:34.136 设备接收:03 03 0C 00 00 00 00 00 00 00 00 00 00 00 00 11 71
10:25:34.156 设备发送:03 03 04 2B 00 01 F4 D0
10:25:39.163 设备接收:03 03 02 02 67 81 0E
10:25:39.183 设备发送:03 03 04 20 00 01 85 12
10:25:44.203 设备接收:03 03 02 00 19 00 4E
10:25:44.212 设备发送:03 03 04 05 00 01 94 D9
10:25:49.210 设备接收:03 03 02 00 00 C1 84
10:25:49.220 设备发送:04 03 04 84 00 04 05 45
10:25:54.237 设备接收:04 03 08 13 88 0B 45 00 07 0B 45 76 BC
10:25:54.258 设备发送:04 03 04 8D 00 05 14 87
10:25:59.261 设备接收:04 03 0A 09 24 10 24 00 00 00 00 00 00 36 93
10:25:59.271 设备发送:04 03 04 98 00 05 05 43
10:26:04.271 设备接收:04 03 0A 09 20 10 22 00 00 00 00 00 00 62 53
10:26:04.292 设备发送:04 03 04 A3 00 05 74 8E
10:26:09.293 设备接收:04 03 0A 09 25 10 36 00 00 00 00 00 00 09 02
10:26:09.301 设备发送:04 03 06 84 00 04 04 FD
10:26:14.297 设备接收:04 03 08 00 00 07 C1 00 07 F6 04 4F DF
10:26:14.337 设备发送:04 03 04 04 00 01 C4 AE
10:26:19.314 设备接收:04 03 02 00 02 F5 85
10:26:19.356 设备发送:04 03 05 84 00 0F 45 7E
10:26:24.352 设备接收:04 03 1E 03 FC 00 02 00 00 03 EE 00 00 00 00 18 10 06 28 03 CA 15 6C 03 25 01 B9 03 FB 00 00 00 00 7A 26
10:26:24.364 设备发送:04 03 05 93 00 0F F5 7A
10:26:29.358 设备接收:04 03 1E 1A 2B 03 11 02 0E 1A 88 03 13 02 16 1C 11 03 14 02 36 04 00 00 04 00 00 04 00 00 03 00 00 B8 29
10:26:29.412 设备发送:04 03 05 A2 00 0F A4 B5
10:26:34.419 设备接收:04 03 1E 00 08 00 00 00 00 00 08 00 02 00 00 00 00 00 00 00 00 00 00 00 00 00 00 00 00 00 00 00 00 40 F1
10:26:34.432 设备发送:04 03 05 B1 00 03 55 75
10:26:39.423 设备接收:04 03 06 00 00 00 00 00 00 1E 25
10:26:39.443 设备发送:04 03 04 2B 00 01 F5 67
10:26:44.430 设备接收:04 03 02 02 EC 74 A9
10:26:44.440 设备发送:04 03 04 20 00 01 84 A5
10:26:49.438 设备接收:04 03 02 00 30 74 50
10:26:49.490 设备发送:04 03 04 05 00 01 95 6E
10:26:54.488 设备接收:04 03 02 00 00 74 44
10:26:54.500 设备发送:05 03 04 84 00 04 04 94
10:26:59.489 设备接收:05 03 08 13 85 13 FC FF 79 13 FD 6A FD
10:26:59.510 设备发送:05 03 04 8D 00 05 15 56
10:27:04.501 设备接收:05 03 0A 09 30 1C 57 00 00 00 00 00 00 89 80
10:27:04.524 设备发送:05 03 04 98 00 05 04 92
10:27:09.540 设备接收:05 03 0A 09 29 1C 3A 00 00 00 00 00 00 92 D6
10:27:09.561 设备发送:05 03 04 A3 00 05 75 5F
10:27:14.577 设备接收:05 03 0A 09 39 1C 34 00 00 00 00 00 00 B0 D6
10:27:14.590 设备发送:05 03 06 84 00 04 05 2C
10:27:19.585 设备接收:05 03 08 00 00 17 0B 00 0D DD A6 6E E8
10:27:19.604 设备发送:05 03 04 04 00 01 C5 7F
10:27:24.591 设备接收:05 03 02 00 02 C8 45
10:27:24.602 设备发送:05 03 05 84 00 0F 44 AF
10:27:29.616 设备接收:05 03 1E 04 51 00 02 00 00 04 53 00 00 00 00 04 45 00 01 00 00 1E 90 06 0C 04 BC 17 B3 06 3A 03 C7 57 FF
10:27:29.627 设备发送:05 03 05 93 00 0F F4 AB
10:27:34.621 设备接收:05 03 1E 17 B0 06 4E 03 D2 17 0B 06 47 03 B4 1E 33 06 29 04 C3 04 51 00 04 00 00 04 4A 00 03 00 00 51 DE
10:27:34.641 设备发送:05 03 05 A2 00 0F A5 64
10:27:39.643 设备接收:05 03 1E 00 00 00 00 00 00 00 00 00 00 00 00 00 00 00 00 00 00 00 00 00 00 00 00 00 00 00 00 00 00 69 7B
10:27:39.665 设备发送:05 03 05 B1 00 03 54 A4
10:27:44.678 设备接收:05 03 06 00 00 00 00 00 00 13 B5
10:27:44.700 设备发送:05 03 04 2B 00 01 F4 B6
10:27:49.682 设备接收:05 03 02 02 E9 89 6A
10:27:49.703 设备发送:05 03 04 20 00 01 85 74
10:27:54.733 设备接收:05 03 02 00 35 89 93
10:27:54.742 设备发送:05 03 04 05 00 01 94 BF
10:27:59.728 设备接收:05 03 02 00 00 49 84
10:27:59.750 设备发送:06 03 04 84 00 04 04 A7
10:28:04.780 设备发送:06 03 04 84 00 04 04 A7
10:28:09.812 设备发送:06 03 04 84 00 04 04 A7
10:28:14.802 设备发送:06 03 04 8D 00 05 15 65
10:28:19.822 设备发送:06 03 04 8D 00 05 15 65
10:28:24.869 设备发送:06 03 04 8D 00 05 15 65
10:28:29.866 设备发送:06 03 04 98 00 05 04 A1
10:28:34.882 设备发送:06 03 04 98 00 05 04 A1
10:28:39.907 设备发送:06 03 04 98 00 05 04 A1
10:28:44.933 设备发送:06 03 04 A3 00 05 75 6C
10:28:49.942 设备发送:06 03 04 A3 00 05 75 6C
10:28:54.975 设备发送:06 03 04 A3 00 05 75 6C
10:28:59.975 设备发送:06 03 06 84 00 04 05 1F
10:29:05.014 设备发送:06 03 06 84 00 04 05 1F
10:29:10.024 设备发送:06 03 06 84 00 04 05 1F
10:29:15.048 设备发送:06 03 04 04 00 01 C5 4C
10:29:19.92400

