
15:41:53.210 设备接收:01 03 0A 08 DB 15 92 00 00 00 00 00 00 39 53
15:41:53.226 设备发送:01 03 04 98 00 05 05 16
15:41:58.189 设备接收:01 03 0A 08 DC 15 80 00 00 00 00 00 00 2D 62
15:41:58.253 设备发送:01 03 04 A3 00 05 74 DB
15:42:03.248 设备发送:01 03 04 A3 00 05 74 DB
15:42:08.256 设备接收:01 03 0A 08 EC 15 73 00 00 00 00 00 00 BA 6C
15:42:08.277 设备发送:01 03 06 84 00 04 04 A8
15:42:13.254 设备接收:01 03 08 00 00 D2 DB 00 13 63 F4 3B 04
15:42:13.296 设备发送:01 03 04 04 00 01 C4 FB
15:42:18.290 设备接收:01 03 02 00 02 39 85
15:42:18.301 设备发送:01 03 05 84 00 0F 45 2B
15:42:23.299 设备接收:01 03 1E 1A CB 03 0B 02 16 1B E6 02 2B 01 8C 1C 0C 02 1A 01 82 1B B2 01 0A 00 BC 1E 2D 03 79 02 AF 46 C7
15:42:23.322 设备发送:01 03 05 93 00 0F F5 2F
15:42:28.335 设备接收:01 03 1E 1D B2 01 DD 01 6B 1E 87 01 CB 01 67 1D E6 01 CC 01 60 1D 9E 01 E6 01 71 1D B1 01 27 00 E0 D7 26
15:42:28.345 设备发送:01 03 05 A2 00 0F A4 E0
15:42:33.352 设备接收:01 03 1E 00 00 00 00 00 00 00 00 00 00 00 00 00 00 00 00 00 00 00 00 00 00 00 00 00 00 00 00 00 00 D8 BA
15:42:33.372 设备发送:01 03 05 B1 00 03 55 20
15:42:38.375 设备接收:01 03 06 00 00 00 00 00 00 21 75
15:42:38.385 设备发送:01 03 04 2B 00 01 F5 32
15:42:43.374 设备接收:01 03 02 02 DE 39 7C
15:42:43.395 设备发送:01 03 04 20 00 01 84 F0
15:42:48.410 设备接收:01 03 02 00 3B F9 97
15:42:48.431 设备发送:01 03 04 05 00 01 95 3B
15:42:53.435 设备接收:01 03 02 00 00 B8 44
15:42:53.445 设备发送:02 03 04 84 00 04 05 23
15:42:58.454 设备接收:02 03 08 13 8B 05 E9 FF E3 05 E9 BE 3C
15:42:58.475 设备发送:02 03 04 8D 00 05 14 E1
15:43:03.467 设备接收:02 03 0A 08 FF 08 91 00 00 00 00 00 00 64 04
15:43:03.487 设备发送:02 03 04 98 00 05 05 25
15:43:08.485 设备接收:02 03 0A 08 FA 08 96 00 00 00 00 00 00 2D 94
15:43:08.505 设备发送:02 03 04 A3 00 05 74 E8
15:43:13.507 设备接收:02 03 0A 08 EF 08 83 00 00 00 00 00 00 9B C5
15:43:13.530 设备发送:02 03 06 84 00 04 04 9B
15:43:18.540 设备接收:02 03 08 00 00 48 25 00 07 2A 25 B7 A6
15:43:18.550 设备发送:02 03 04 04 00 01 C4 C8
15:43:23.549 设备接收:02 03 02 00 02 7D 85
15:43:23.561 设备发送:01 03 05 84 00 06 85 2D
15:43:28.556 设备接收:01 03 0C 1A CA 02 F5 02 07 1B E4 02 10 01 79 49 39
15:43:28.569 设备发送:01 03 05 8A 00 06 E4 EE
15:43:33.580 设备接收:01 03 0C 1C 0A 02 0D 01 79 1C 01 00 FE 00 B6 6C CC
15:43:33.602 设备发送:01 03 05 90 00 06 C5 29
15:43:38.608 设备接收:01 03 0C 1E 04 03 48 02 86 1D DE 01 D6 01 67 65 95
15:43:38.628 设备发送:01 03 05 96 00 06 25 28
15:43:43.613 设备接收:01 03 0C 1E 60 01 C9 01 63 1D E8 01 C6 01 5B 7E 33
15:43:43.624 设备发送:01 03 05 9C 00 06 05 2A
15:43:48.634 设备接收:01 03 0C 1D C5 01 DC 01 6B 1E 54 01 09 00 CE B2 81
15:43:48.653 设备发送:02 03 05 A2 00 06 64 D5
15:43:53.660 设备接收:02 03 0C 00 00 00 00 00 00 00 00 00 00 00 00 D0 71
15:43:53.675 设备发送:02 03 05 A8 00 06 44 D7
15:43:58.685 设备接收:02 03 0C 00 00 00 00 00 00 00 00 00 00 00 00 D0 71
15:43:58.701 设备发送:02 03 05 AE 00 06 A4 D6
15:44:03.714 设备接收:02 03 0C 00 00 00 00 00 00 00 00 00 00 00 00 D0 71
15:44:03.745 设备发送:02 03 04 2B 00 01 F5 01
15:44:08.755 设备接收:02 03 02 01 D6 7C 4A
15:44:08.770 设备发送:02 03 04 20 00 01 84 C3
15:44:13.755 设备接收:02 03 02 00 24 FC 5F
15:44:13.802 设备发送:02 03 04 05 00 01 95 08
15:44:18.773 设备接收:02 03 02 00 00 FC 44
15:44:19.447 设备发送:03 03 04 84 00 04 04 F2
15:44:23.791 设备接收:03 03 08 13 87 02 A4 00 05 02 A7 08 9E
15:44:23.810 设备发送:03 03 04 8D 00 05 15 30
15:44:28.808 设备接收:03 03 0A 08 FC 03 CF 00 00 00 00 00 00 8C 03
15:44:28.829 设备发送:03 03 04 98 00 05 04 F4
15:44:33.811 设备接收:03 03 0A 09 06 03 CF 00 00 00 00 00 00 A7 62
15:44:33.832 设备发送:03 03 04 A3 00 05 75 39
15:44:38.833 设备接收:03 03 0A 09 0D 03 D3 00 00 00 00 00 00 09 93
15:44:38.853 设备发送:03 03 06 84 00 04 05 4A
15:44:43.860 设备接收:03 03 08 00 00 20 C4 00 03 4F 98 AD 44
15:44:43.890 设备发送:03 03 04 04 00 01 C5 19
15:44:48.872 设备接收:03 03 02 00 02 40 45
15:44:48.892 设备发送:03 03 05 84 00 06 84 CF
15:44:53.906 设备接收:03 03 0C 1E 37 01 C0 01 5A 1D D6 01 B9 01 51 BC 0E
15:44:53.916 设备发送:03 03 05 8A 00 06 E5 0C
15:44:58.931 设备接收:03 03 0C 00 0B 00 00 00 00 00 00 00 00 00 00 34 55
15:44:58.940 设备发送:03 03 05 90 00 06 C4 CB
15:45:03.935 设备接收:03 03 0C 00 00 00 00 00 00 00 00 00 00 00 00 11 71
15:45:03.956 设备发送:03 03 05 96 00 06 24 CA
15:45:08.960 设备接收:03 03 0C 00 00 00 00 00 00 00 00 00 00 00 00 11 71
15:45:08.972 设备发送:03 03 05 9C 00 06 04 C8
15:45:13.981 设备接收:03 03 0C 00 00 00 00 00 00 00 00 00 00 00 00 11 71
15:45:14.001 设备发送:03 03 05 A2 00 06 65 04
15:45:18.985 设备接收:03 03 0C 00 00 00 00 00 00 00 00 00 00 00 00 11 71
15:45:19.028 设备发送:03 03 05 A8 00 06 45 06
15:45:24.031 设备接收:03 03 0C 00 00 00 00 00 00 00 00 00 00 00 00 11 71
15:45:24.053 设备发送:03 03 05 AE 00 06 A5 07
15:45:29.034 设备接收:03 03 0C 00 00 00 00 00 00 00 00 00 00 00 00 11 71
15:45:29.054 设备发送:03 03 04 2B 00 01 F4 D0
15:45:34.052 设备接收:03 03 02 02 67 81 0E
15:45:34.071 设备发送:03 03 04 20 00 01 85 12
15:45:39.076 设备接收:03 03 02 00 19 00 4E
15:45:39.097 设备发送:03 03 04 05 00 01 94 D9
15:45:44.087 设备接收:03 03 02 00 00 C1 84
15:45:44.108 设备发送:04 03 04 84 00 04 05 45
15:45:49.117 设备接收:04 03 08 13 86 04 37 00 02 04 37 34 5C
15:45:49.141 设备发送:04 03 04 8D 00 05 14 87
15:45:54.148 设备接收:04 03 0A 09 34 06 0C 00 00 00 00 00 00 D2 77
15:45:54.168 设备发送:04 03 04 98 00 05 05 43
15:45:59.167 设备接收:04 03 0A 09 2B 06 0A 00 00 00 00 00 00 38 47
15:45:59.178 设备发送:04 03 04 A3 00 05 74 8E
15:46:04.166 设备接收:04 03 0A 09 42 06 22 00 00 00 00 00 00 52 17
15:46:04.186 设备发送:04 03 06 84 00 04 04 FD
15:46:09.210 设备接收:04 03 08 00 00 4A 17 00 07 FC A6 8E C9
15:46:09.220 设备发送:04 03 04 04 00 01 C4 AE
15:46:14.231 设备接收:04 03 02 00 02 F5 85
15:46:14.242 设备发送:04 03 05 84 00 0F 45 7E
15:46:19.229 设备接收:04 03 1E 04 42 00 04 00 00 04 36 00 00 00 00 1A 90 02 42 01 89 18 DB 01 12 00 AE 04 43 00 00 00 00 3A 81
15:46:19.279 设备发送:04 03 05 93 00 0F F5 7A
15:46:24.263 设备接收:04 03 1E 1B BA 01 1C 00 CA 1C 18 01 10 00 C3 1D C9 00 F8 00 BD 04 47 00 07 00 00 04 44 00 05 00 00 E5 44
15:46:24.285 设备发送:04 03 05 A2 00 0F A4 B5
15:46:29.288 设备接收:04 03 1E 00 09 00 00 00 00 00 09 00 03 00 00 00 00 00 00 00 00 00 00 00 00 00 00 00 00 00 00 00 00 5D BD
15:46:29.310 设备发送:04 03 05 B1 00 03 55 75
15:46:34.304 设备接收:04 03 06 00 00 00 00 00 00 1E 25
15:46:34.328 设备发送:04 03 04 2B 00 01 F5 67
15:46:39.324 设备接收:04 03 02 02 EC 74 A9
15:46:39.347 设备发送:04 03 04 20 00 01 84 A5
15:46:44.326 设备接收:04 03 02 00 37 35 92
15:46:44.348 设备发送:04 03 04 05 00 01 95 6E
15:46:49.377 设备接收:04 03 02 00 00 74 44
15:46:49.389 设备发送:05 03 04 84 00 04 04 94
15:46:54.362 设备接收:05 03 08 13 87 07 6A FF FC 07 6A 5D 73
15:46:54.413 设备发送:05 03 04 8D 00 05 15 56
15:46:59.404 设备接收:05 03 0A 09 34 0A 8B 00 00 00 00 00 00 27 AB
15:46:59.416 设备发送:05 03 04 98 00 05 04 92
15:47:04.412 设备接收:05 03 0A 09 2C 0A 76 00 00 00 00 00 00 A1 64
15:47:04.433 设备发送:05 03 04 A3 00 05 75 5F
15:47:09.427 设备接收:05 03 0A 09 44 0A 96 00 00 00 00 00 00 8F 68
15:47:09.447 设备发送:05 03 06 84 00 04 05 2C
15:47:14.447 设备接收:05 03 08 00 00 86 FA 00 0D E8 D8 98 CC
15:47:14.466 设备发送:05 03 04 04 00 01 C5 7F
15:47:19.490 设备接收:05 03 02 00 02 C8 45
15:47:19.512 设备发送:05 03 05 84 00 0F 44 AF
15:47:24.494 设备接收:05 03 1E 04 4C 00 00 00 00 04 4C 00 00 00 00 04 40 00 00 00 00 16 6D 02 6F 01 65 18 78 01 FF 01 40 2F 82
15:47:24.507 设备发送:05 03 05 93 00 0F F4 AB
15:47:29.530 设备接收:05 03 1E 17 B0 03 75 02 18 15 CA 02 BD 01 87 1E FC 01 F7 01 8F 04 4B 00 06 00 00 04 48 00 03 00 00 70 75
15:47:29.549 设备发送:05 03 05 A2 00 0F A5 64
15:47:34.530 设备接收:05 03 1E 00 00 00 00 00 00 00 00 00 00 00 00 00 00 00 00 00 00 00 00 00 00 00 00 00 00 00 00 00 00 69 7B
15:47:34.541 设备发送:05 03 05 B1 00 03 54 A4
15:47:39.543 设备接收:05 03 06 00 00 00 00 00 00 13 B5
15:47:39.596 设备发送:05 03 04 2B 00 01 F4 B6
15:47:44.585 设备接收:05 03 02 02 E9 89 6A
15:47:44.608 设备发送:05 03 04 20 00 01 85 74
15:47:49.585 设备接收:05 03 02 00 34 48 53
15:47:49.608 设备发送:05 03 04 05 00 01 94 BF
15:47:54.623 设备接收:05 03 02 00 00 49 84
15:47:54.643 设备发送:06 03 04 84 00 04 04 A7
15:47:59.629 设备接收:06 03 08 13 87 04 12 FF D9 04 17 23 14
15:47:59.638 设备发送:06 03 04 8D 00 05 15 65
15:48:04.668 设备接收:06 03 0A 09 4E 05 BE 00 00 00 00 00 00 1C 49
15:48:04.689 设备发送:06 03 04 98 00 05 04 A1
15:48:09.673 设备接收:06 03 0A 09 41 05 C5 00 00 00 00 00 00 96 BE
15:48:09.686 设备发送:06 03 04 A3 00 05 75 6C
15:48:14.697 设备接收:06 03 0A 09 44 05 BF 00 00 00 00 00 00 72 29
15:48:14.717 设备发送:06 03 06 84 00 04 05 1F
15:48:19.734 设备接收:06 03 08 00 00 47 10 00 07 2D 19 2C 4C
15:48:19.746 设备发送:06 03 04 04 00 01 C5 4C
15:48:24.742 设备接收:06 03 02 00 02 8C 45
15:48:24.764 设备发送:06 03 05 84 00 0F 44 9C
15:48:29.755 设备接收:06 03 1E 1C 8D 01 FA 01 72 1B EF 01 00 00 B7 17 B4 03 73 02 18 06 4A 00 0F 00 02 00 00 00 00 00 00 35 F1
15:48:29.764 设备发送:06 03 05 93 00 0F F4 98
15:48:34.799 设备接收:06 03 1E 00 00 00 00 00 00 00 00 00 00 00 00 00 00 00 00 00 00 00 00 00 00 00 00 00 00 00 00 00 00 DD 7B
15:48:34.819 设备发送:06 03 05 A2 00 0F A5 57
15:48:39.794 设备接收:06 03 1E 00 00 00 00 00 00 00 00 00 00 00 00 00 00 00 00 00 00 00 00 00 00 00 00 00 00 00 00 00 00 DD 7B
15:48:39.815 设备发送:06 03 05 B1 00 03 54 97
15:48:44.840 设备接收:06 03 06 00 00 00 00 00 00 07 45
15:48:44.862 设备发送:06 03 04 2B 00 01 F4 85
15:48:49.847 设备接收:06 03 02 01 DC 0D 8D
15:48:49.860 设备发送:06 03 04 20 00 01 85 47
15:48:54.859 设备接收:06 03 02 00 1A 8C 4F
15:48:54.870 设备发送:06 03 04 05 00 01 94 8C
15:48:59.883 设备接收:06 03 02 00 00 0D 84
15:48:59.903 设备发送:01 03 04 84 00 04 05 10
15:49:04.906 设备接收:01 03 08 13 89 0C 45 FF E3 0C 46 44 15
15:49:04.927 设备发送:01 03 04 8D 00 05 14 D2
15:49:09.944 设备接收:01 03 0A 08 DC 12 13 00 00 00 00 00 00 CF 8D
15:49:09.954 设备发送:01 03 04 98 00 05 05 16
15:49:14.956 设备接收:01 03 0A 08 DB 12 03 00 00 00 00 00 00 F8 7C
15:49:14.975 设备发送:01 03 04 A3 00 05 74 DB
15:49:19.984 设备接收:01 03 0A 08 E8 12 0E 00 00 00 00 00 00 64 4D
15:49:19.993 设备发送:01 03 06 84 00 04 04 A8
15:49:24.975 设备接收:01 03 08 00 00 D4 72 00 13 64 1D A4 C4
15:49:25.016 设备发送:01 03 04 04 00 01 C4 FB
15:49:30.015 设备接收:01 03 02 00 02 39 85
15:49:30.035 设备发送:01 03 05 84 00 0F 45 2B
15:49:35.035 设备接收:01 03 1E 1A C9 02 B6 01 DB 1B E4 01 E8 01 5C 1B DF 01 EC 01 5F 1B B2 00 F2 00 AB 1E 76 02 96 02 04 29 D1
15:49:35.055 设备发送:01 03 05 93 00 0F F5 2F
15:49:40.041 设备接收:01 03 1E 1E 28 01 B0 01 4D 1F EE 01 1A 00 E7 1E 0C 01 A4 01 43 1D C3 01 BE 01 54 1D 63 00 ED 00 B2 21 7E
15:49:40.053 设备发送:01 03 05 A2 00 0F A4 E0
15:49:45.053 设备接收:01 03 1E 00 00 00 00 00 00 00 00 00 00 00 00 00 00 00 00 00 00 00 00 00 00 00 00 00 00 00 00 00 00 D8 BA
15:49:45.075 设备发送:01 03 05 B1 00 03 55 20
15:49:50.076 设备接收:01 03 06 00 00 00 00 00 00 21 75
15:49:50.085 设备发送:01 03 04 2B 00 01 F5 32
15:49:55.096 设备接收:01 03 02 02 DE 39 7C
15:49:55.138 设备发送:01 03 04 20 00 01 84 F0
15:50:00.130 设备接收:01 03 02 00 3D 79 95
15:50:00.142 设备发送:01 03 04 05 00 01 95 3B
15:50:05.160 设备接收:01 03 02 00 00 B8 44
15:50:05.171 设备发送:02 03 04 84 00 04 05 23
15:50:10.181 设备接收:02 03 08 13 84 04 22 FF D7 04 25 A5 36
15:50:10.193 设备发送:02 03 04 8D 00 05 14 E1
15:50:15.189 设备接收:02 03 0A 08 F5 05 FD 00 00 00 00 00 00 77 3B
15:50:15.199 设备发送:02 03 04 98 00 05 05 25
15:50:20.197 设备接收:02 03 0A 08 F5 06 01 00 00 00 00 00 00 0B 21
15:50:20.219 设备发送:02 03 04 A3 00 05 74 E8
15:50:25.239 设备接收:02 03 0A 08 E7 05 E6 00 00 00 00 00 00 08 9A
15:50:25.251 设备发送:02 03 06 84 00 04 04 9B
15:50:30.250 设备接收:02 03 08 00 00 48 BF 00 07 2A 35 EE 76
15:50:30.263 设备发送:02 03 04 04 00 01 C4 C8
15:50:35.250 设备接收:02 03 02 00 02 7D 85
15:50:35.291 设备发送:01 03 05 84 00 06 85 2D
15:50:40.280 设备接收:01 03 0C 1A F3 02 A7 01 D4 1B E7 01 E0 01 57 1B 75
15:50:40.304 设备发送:01 03 05 8A 00 06 E4 EE
15:50:45.319 设备接收:01 03 0C 1B E3 01 E2 01 58 1B B1 00 EE 00 A8 68 C1
15:50:45.338 设备发送:01 03 05 90 00 06 C5 29
15:50:50.340 设备接收:01 03 0C 1E 55 02 8C 01 FA 1D DE 01 AE 01 49 AE BF
15:50:50.360 设备发送:01 03 05 96 00 06 25 28
15:50:55.335 设备接收:01 03 0C 1F 46 01 07 00 D2 1D E8 01 9E 01 3D 4B E3
15:50:55.346 设备发送:01 03 05 9C 00 06 05 2A
15:51:00.372 设备接收:01 03 0C 1D CB 01 B9 01 50 1D 13 00 EA 00 AE DF E6
15:51:00.399 设备发送:02 03 05 A2 00 06 64 D5
15:51:05.369 设备接收:02 03 0C 00 00 00 00 00 00 00 00 00 00 00 00 D0 71
15:51:05.391 设备发送:02 03 05 A8 00 06 44 D7
15:51:10.404 设备接收:02 03 0C 00 00 00 00 00 00 00 00 00 00 00 00 D0 71
15:51:10.415 设备发送:02 03 05 AE 00 06 A4 D6
15:51:15.438 设备接收:02 03 0C 00 00 00 00 00 00 00 00 00 00 00 00 D0 71
15:51:15.459 设备发送:02 03 04 2B 00 01 F5 01
15:51:20.424 设备接收:02 03 02 01 D6 7C 4A
15:51:20.475 设备发送:02 03 04 20 00 01 84 C3
15:51:25.459 设备接收:02 03 02 00 20 FD 9C
15:51:25.481 设备发送:02 03 04 05 00 01 95 08
15:51:30.477 设备接收:02 03 02 00 00 FC 44
15:51:30.487 设备发送:03 03 04 84 00 04 04 F2
15:51:35.502 设备接收:03 03 08 13 89 02 6D 00 0C 02 70 AB 12
15:51:35.523 设备发送:03 03 04 8D 00 05 15 30
15:51:40.526 设备接收:03 03 0A 08 FA 03 82 00 00 00 00 00 00 3A A7
15:51:40.538 设备发送:03 03 04 98 00 05 04 F4
15:51:45.546 设备接收:03 03 0A 09 03 03 82 00 00 00 00 00 00 05 36
15:51:45.567 设备发送:03 03 04 A3 00 05 75 39
15:51:50.580 设备接收:03 03 0A 09 0C 03 85 00 00 00 00 00 00 32 06
15:51:50.590 设备发送:03 03 06 84 00 04 05 4A
15:51:55.565 设备接收:03 03 08 00 00 21 11 00 03 4F A0 A0 95
15:51:55.618 设备发送:03 03 04 04 00 01 C5 19
15:52:00.604 设备接收:03 03 02 00 02 40 45
15:52:00.612 设备发送:03 03 05 84 00 06 84 CF
15:52:05.610 设备接收:03 03 0C 1E 0F 01 9F 01 40 1E 27 01 93 01 37 B3 58
15:52:05.662 设备发送:03 03 05 8A 00 06 E5 0C
15:52:10.653 设备接收:03 03 0C 00 0B 00 00 00 00 00 00 00 00 00 00 34 55
15:52:10.663 设备发送:03 03 05 90 00 06 C4 CB
15:52:15.649 设备接收:03 03 0C 00 00 00 00 00 00 00 00 00 00 00 00 11 71
15:52:15.671 设备发送:03 03 05 96 00 06 24 CA
15:52:20.693 设备接收:03 03 0C 00 00 00 00 00 00 00 00 00 00 00 00 11 71
15:52:20.715 设备发送:03 03 05 9C 00 06 04 C8
15:52:25.697 设备接收:03 03 0C 00 00 00 00 00 00 00 00 00 00 00 00 11 71
15:52:25.717 设备发送:03 03 05 A2 00 06 65 04
15:52:30.742 设备接收:03 03 0C 00 00 00 00 00 00 00 00 00 00 00 00 11 71
15:52:30.762 设备发送:03 03 05 A8 00 06 45 06
15:52:35.735 设备接收:03 03 0C 00 00 00 00 00 00 00 00 00 00 00 00 11 71
15:52:35.755 设备发送:03 03 05 AE 00 06 A5 07
15:52:40.758 设备接收:03 03 0C 00 00 00 00 00 00 00 00 00 00 00 00 11 71
15:52:40.767 设备发送:03 03 04 2B 00 01 F4 D0
15:52:45.792 设备接收:03 03 02 02 67 81 0E
15:52:45.802 设备发送:03 03 04 20 00 01 85 12
15:52:50.788 设备接收:03 03 02 00 19 00 4E
15:52:50.830 设备发送:03 03 04 05 00 01 94 D9
15:52:55.823 设备接收:03 03 02 00 00 C1 84
15:52:55.838 设备发送:04 03 04 84 00 04 05 45
15:53:00.844 设备接收:04 03 08 13 84 03 DE 00 03 03 DE D9 82
15:53:00.865 设备发送:04 03 04 8D 00 05 14 87
15:53:05.873 设备接收:04 03 0A 09 33 05 98 00 00 00 00 00 00 61 9B
15:53:05.884 设备发送:04 03 04 98 00 05 05 43
15:53:10.883 设备接收:04 03 0A 09 2E 05 89 00 00 00 00 00 00 F5 CA
15:53:10.904 设备发送:04 03 04 A3 00 05 74 8E
15:53:15.894 设备接收:04 03 0A 09 33 05 A8 00 00 00 00 00 00 51 98
15:53:15.933 设备发送:04 03 06 84 00 04 04 FD
15:53:20.914 设备接收:04 03 08 00 00 4A 92 00 07 FC B3 82 D8
15:53:20.923 设备发送:04 03 04 04 00 01 C4 AE
15:53:25.935 设备接收:04 03 02 00 02 F5 85
15:53:25.946 设备发送:04 03 05 84 00 0F 45 7E
15:53:30.958 设备接收:04 03 1E 04 3D 00 05 00 00 04 31 00 00 00 00 19 77 02 26 01 67 18 8C 00 F9 00 9C 04 3E 00 01 00 00 3B 40
15:53:30.978 设备发送:04 03 05 93 00 0F F5 7A
15:53:35.992 设备接收:04 03 1E 1C 0B 01 09 00 BE 1B C6 00 FE 00 B4 1D 78 00 E3 00 AC 04 44 00 05 00 00 04 45 00 04 00 00 F7 FD
15:53:36.014 设备发送:04 03 05 A2 00 0F A4 B5
15:53:40.993 设备接收:04 03 1E 00 09 00 00 00 00 00 09 00 02 00 00 00 00 00 00 00 00 00 00 00 00 00 00 00 00 00 00 00 00 4D 6C
15:53:41.033 设备发送:04 03 05 B1 00 03 55 75
15:53:46.014 设备接收:04 03 06 00 00 00 00 00 00 1E 25
15:53:46.025 设备发送:04 03 04 2B 00 01 F5 67
15:53:51.024 设备接收:04 03 02 02 EC 74 A9
15:53:51.075 设备发送:04 03 04 20 00 01 84 A5
15:53:56.054 设备接收:04 03 02 00 20 75 9C
15:53:56.075 设备发送:04 03 04 05 00 01 95 6E
15:54:01.083 设备接收:04 03 02 00 00 74 44
15:54:01.094 设备发送:05 03 04 84 00 04 04 94
15:54:06.123 设备接收:05 03 08 13 86 06 56 FF E6 06 56 3C 21
15:54:06.134 设备发送:05 03 04 8D 00 05 15 56
15:54:11.122 设备接收:05 03 0A 09 36 09 0C 00 00 00 00 00 00 89 D6
15:54:11.132 设备发送:05 03 04 98 00 05 04 92
15:54:16.128 设备接收:05 03 0A 09 30 09 03 00 00 00 00 00 00 5D 76
15:54:16.178 设备发送:05 03 04 A3 00 05 75 5F
15:54:21.166 设备接收:05 03 0A 09 3A 09 13 00 00 00 00 00 00 32 17
15:54:21.186 设备发送:05 03 06 84 00 04 05 2C
15:54:26.189 设备接收:05 03 08 00 00 87 CB 00 0D E8 ED 24 CE
15:54:26.200 设备发送:05 03 04 04 00 01 C5 7F
15:54:31.202 设备接收:05 03 02 00 02 C8 45
15:54:31.213 设备发送:05 03 05 84 00 0F 44 AF
15:54:36.206 设备接收:05 03 1E 04 3B 00 00 00 00 04 3B 00 00 00 00 04 30 00 01 00 00 10 3E 02 EB 01 36 18 7D 01 D5 01 26 D5 94
15:54:36.259 设备发送:05 03 05 93 00 0F F4 AB
15:54:41.264 设备接收:05 03 1E 17 86 02 A7 01 99 14 8A 02 81 01 51 1F 71 01 C2 01 6A 04 3A 00 01 00 00 04 37 00 01 00 00 FF 1C
15:54:41.283 设备发送:05 03 05 A2 00 0F A5 64
15:54:46.282 设备接收:05 03 1E 00 00 00 00 00 00 00 00 00 00 00 00 00 00 00 00 00 00 00 00 00 00 00 00 00 00 00 00 00 00 69 7B
15:54:46.304 设备发送:05 03 05 B1 00 03 54 A4
15:54:51.282 设备接收:05 03 06 00 00 00 00 00 00 13 B5
15:54:51.302 设备发送:05 03 04 2B 00 01 F4 B6
15:54:56.311 设备接收:05 03 02 02 E9 89 6A
15:54:56.322 设备发送:05 03 04 20 00 01 85 74
15:55:01.330 设备接收:05 03 02 00 22 C9 9D
15:55:01.351 设备发送:05 03 04 05 00 01 94 BF
15:55:06.355 设备接收:05 03 02 00 00 49 84
15:55:06.364 设备发送:06 03 04 84 00 04 04 A7
15:55:11.367 设备接收:06 03 08 13 8C 03 C2 FF D1 03 C8 9B DB
15:55:11.388 设备发送:06 03 04 8D 00 05 15 65
15:55:16.394 设备接收:06 03 0A 09 4C 05 4D 00 00 00 00 00 00 C6 26
15:55:16.413 设备发送:06 03 04 98 00 05 04 A1
15:55:21.418 设备接收:06 03 0A 09 45 05 51 00 00 00 00 00 00 71 B7
15:55:21.445 设备发送:06 03 04 A3 00 05 75 6C
15:55:26.455 设备接收:06 03 0A 09 49 05 47 00 00 00 00 00 00 53 76
15:55:26.467 设备发送:06 03 06 84 00 04 05 1F
15:55:31.448 设备接收:06 03 08 00 00 47 87 00 07 2D 25 59 80
15:55:31.488 设备发送:06 03 04 04 00 01 C5 4C
15:55:36.475 设备接收:06 03 02 00 02 8C 45
15:55:36.487 设备发送:06 03 05 84 00 0F 44 9C
15:55:41.485 设备接收:06 03 1E 1C 8D 01 D0 01 53 1B F0 00 E6 00 A4 18 53 03 23 01 F4 05 38 00 11 00 02 00 00 00 00 00 00 E9 0F
15:55:41.508 设备发送:06 03 05 93 00 0F F4 98
15:55:46.513 设备接收:06 03 1E 00 00 00 00 00 00 00 00 00 00 00 00 00 00 00 00 00 00 00 00 00 00 00 00 00 00 00 00 00 00 DD 7B
15:55:46.524 设备发送:06 03 05 A2 00 0F A5 57
15:55:51.542 设备接收:06 03 1E 00 00 00 00 00 00 00 00 00 00 00 00 00 00 00 00 00 00 00 00 00 00 00 00 00 00 00 00 00 00 DD 7B
15:55:51.563 设备发送:06 03 05 B1 00 03 54 97
15:55:56.564 设备接收:06 03 06 00 00 00 00 00 00 07 45
15:55:56.577 设备发送:06 03 04 2B 00 01 F4 85
15:56:01.587 设备接收:06 03 02 01 DC 0D 8D
15:56:01.595 设备发送:06 03 04 20 00 01 85 47
15:56:06.591 设备接收:06 03 02 00 18 0D 8E
15:56:06.607 设备发送:06 03 04 05 00 01 94 8C
15:56:11.643 设备接收:06 03 02 00 00 0D 84
15:56:11.653 设备发送:01 03 04 84 00 04 05 10
15:56:16.649 设备接收:01 03 08 13 88 0B 0D 00 0E 0B 0D 57 4A
15:56:16.662 设备发送:01 03 04 8D 00 05 14 D2
15:56:21.668 设备接收:01 03 0A 08 DC 10 3E 00 00 00 00 00 00 B3 56
15:56:21.689 设备发送:01 03 04 98 00 05 05 16
15:56:26.697 设备接收:01 03 0A 08 DB 10 34 00 00 00 00 00 00 3F 66
15:56:26.718 设备发送:01 03 04 A3 00 05 74 DB
15:56:31.711 设备接收:01 03 0A 08 EA 10 48 00 00 00 00 00 00 DB 30
15:56:31.730 设备发送:01 03 06 84 00 04 04 A8
15:56:36.718 设备接收:01 03 08 00 00 D5 D5 00 13 64 41 90 F5
15:56:36.729 设备发送:01 03 04 04 00 01 C4 FB
15:56:41.739 设备接收:01 03 02 00 02 39 85
15:56:41.761 设备发送:01 03 05 84 00 0F 45 2B
15:56:46.742 设备接收:01 03 1E 1A F1 02 78 01 B4 1B E5 01 BD 01 3E 1B E1 01 C2 01 41 1B B1 00 DF 00 9E 1E 79 02 5C 01 D7 63 BF
15:56:46.794 设备发送:01 03 05 93 00 0F F5 2F
15:56:51.762 设备接收:01 03 1E 1D B4 01 91 01 31 1F A0 00 E4 00 B9 1E 39 01 7F 01 28 1D EF 01 96 01 37 1D 65 00 D1 00 9D DA 2D
15:56:51.816 设备发送:01 03 05 A2 00 0F A4 E0
15:56:56.805 设备接收:01 03 1E 00 00 00 00 00 00 00 00 00 00 00 00 00 00 00 00 00 00 00 00 00 00 00 00 00 00 00 00 00 00 D8 BA
15:56:56.814 设备发送:01 03 05 B1 00 03 55 20
15:57:01.840 设备接收:01 03 06 00 00 00 00 00 00 21 75
15:57:01.851 设备发送:01 03 04 2B 00 01 F5 32
15:57:06.830 设备接收:01 03 02 02 DE 39 7C
15:57:06.841 设备发送:01 03 04 20 00 01 84 F0
15:57:11.869 设备接收:01 03 02 00 3E 39 94
15:57:11.878 设备发送:01 03 04 05 00 01 95 3B
15:57:16.894 设备接收:01 03 02 00 00 B8 44
15:57:16.902 设备发送:02 03 04 84 00 04 05 23
15:57:21.900 设备接收:02 03 08 13 86 03 70 FF D7 03 72 7D 43
15:57:21.920 设备发送:02 03 04 8D 00 05 14 E1
15:57:26.924 设备接收:02 03 0A 08 F2 05 04 00 00 00 00 00 00 38 04
15:57:26.935 设备发送:02 03 04 98 00 05 05 25
15:57:31.926 设备接收:02 03 0A 08 F4 05 0A 00 00 00 00 00 00 FC 64
15:57:31.945 设备发送:02 03 04 A3 00 05 74 E8
15:57:36.951 设备接收:02 03 0A 08 E6 04 F7 00 00 00 00 00 00 C5 C7
15:57:36.962 设备发送:02 03 06 84 00 04 04 9B
15:57:41.968 设备接收:02 03 08 00 00 49 2F 00 07 2A 40 EE 5D
15:57:41.978 设备发送:02 03 04 04 00 01 C4 C8
15:57:46.997 设备接收:02 03 02 00 02 7D 85
15:57:47.008 设备发送:01 03 05 84 00 06 85 2D
15:57:52.035 设备接收:01 03 0C 1A F0 02 6C 01 AC 1B E5 01 B7 01 3A C6 FE
15:57:52.052 设备发送:01 03 05 8A 00 06 E4 EE
15:57:57.050 设备接收:01 03 0C 1C 0B 01 B6 01 3B 1B B2 00 DC 00 9C 99 74
15:57:57.059 设备发送:01 03 05 90 00 06 C5 29
15:58:02.071 设备接收:01 03 0C 1E A5 02 4D 01 CE 1D D9 01 86 01 2A F0 0B
15:58:02.083 设备发送:01 03 05 96 00 06 25 28
15:58:07.093 设备接收:01 03 0C 1F F0 00 DE 00 B6 1E 3A 01 78 01 23 59 E1
15:58:07.100 设备发送:01 03 05 9C 00 06 05 2A
15:58:12.083 设备接收:01 03 0C 1D F0 01 8E 01 31 1C 73 00 D4 00 9A E6 F7
15:58:12.103 设备发送:02 03 05 A2 00 06 64 D5
15:58:17.113 设备接收:02 03 0C 00 00 00 00 00 00 00 00 00 00 00 00 D0 71
15:58:17.135 设备发送:02 03 05 A8 00 06 44 D7
15:58:22.141 设备接收:02 03 0C 00 00 00 00 00 00 00 00 00 00 00 00 D0 71
15:58:22.151 设备发送:02 03 05 AE 00 06 A4 D6
15:58:27.154 设备接收:02 03 0C 00 00 00 00 00 00 00 00 00 00 00 00 D0 71
15:58:27.165 设备发送:02 03 04 2B 00 01 F5 01
15:58:32.161 设备接收:02 03 02 01 D6 7C 4A
15:58:32.180 设备发送:02 03 04 20 00 01 84 C3
15:58:37.216 设备接收:02 03 02 00 1D 3C 4D
15:58:37.227 设备发送:02 03 04 05 00 01 95 08
15:58:42.217 设备接收:02 03 02 00 00 FC 44
15:58:42.237 设备发送:03 03 04 84 00 04 04 F2
15:58:47.253 设备接收:03 03 08 13 8A 02 34 00 0E 02 37 65 ED
15:58:47.265 设备发送:03 03 04 8D 00 05 15 30
15:58:52.264 设备接收:03 03 0A 08 F2 03 2B 00 00 00 00 00 00 64 6D
15:58:52.289 设备发送:03 03 04 98 00 05 04 F4
15:58:57.288 设备接收:03 03 0A 08 FB 03 31 00 00 00 00 00 00 B5 FC
15:58:57.297 设备发送:03 03 04 A3 00 05 75 39
15:59:02.293 设备接收:03 03 0A 09 03 03 38 00 00 00 00 00 00 1E FD
15:59:02.314 设备发送:03 03 06 84 00 04 05 4A
15:59:07.321 设备接收:03 03 08 00 00 21 58 00 03 4F A7 3C 99
15:59:07.342 设备发送:03 03 04 04 00 01 C5 19
15:59:12.349 设备接收:03 03 02 00 02 40 45
15:59:12.373 设备发送:03 03 05 84 00 06 84 CF
15:59:17.369 设备接收:03 03 0C 1E 5E 01 73 01 21 1D D1 01 6E 01 18 42 AD
15:59:17.379 设备发送:03 03 05 8A 00 06 E5 0C
15:59:22.383 设备接收:03 03 0C 00 0B 00 00 00 00 00 00 00 00 00 00 34 55
15:59:22.403 设备发送:03 03 05 90 00 06 C4 CB
15:59:27.407 设备接收:03 03 0C 00 00 00 00 00 00 00 00 00 00 00 00 11 71
15:59:27.427 设备发送:03 03 05 96 00 06 24 CA
15:59:32.413 设备接收:03 03 0C 00 00 00 00 00 00 00 00 00 00 00 00 11 71
15:59:32.423 设备发送:03 03 05 9C 00 06 04 C8
15:59:37.450 设备接收:03 03 0C 00 00 00 00 00 00 00 00 00 00 00 00 11 71
15:59:37.466 设备发送:03 03 05 A2 00 06 65 04
15:59:42.470 设备接收:03 03 0C 00 00 00 00 00 00 00 00 00 00 00 00 11 71
15:59:42.480 设备发送:03 03 05 A8 00 06 45 06
15:59:47.480 设备接收:03 03 0C 00 00 00 00 00 00 00 00 00 00 00 00 11 71
15:59:47.512 设备发送:03 03 05 AE 00 06 A5 07

