15:20:40.187 设备接收:01 03 0A 08 E0 1F 6F 00 00 00 00 00 00 B2 D2
15:20:40.218 设备发送:01 03 04 A3 00 05 74 DB
15:20:45.198 设备接收:01 03 0A 08 F1 1F 75 00 00 00 00 00 00 C9 43
15:20:45.244 设备发送:01 03 06 84 00 04 04 A8
15:20:50.235 设备接收:01 03 08 00 00 CC 34 00 13 63 4A 6D 1D
15:20:50.266 设备发送:01 03 04 04 00 01 C4 FB
15:20:55.256 设备接收:01 03 02 00 02 39 85
15:20:55.271 设备发送:01 03 05 84 00 0F 45 2B
15:21:00.267 设备接收:01 03 1E 1A 7B 04 95 03 1B 1A A9 04 81 03 13 1A 2E 04 8F 03 0E 1C 01 01 4D 00 EF 1D DF 04 7B 03 6D 18 7C
15:21:00.282 设备发送:01 03 05 93 00 0F F5 2F
15:21:05.284 设备接收:01 03 1E 1D DB 02 46 01 BC 1D E7 02 48 01 BF 1D E6 02 33 01 AF 1D 9E 02 4E 01 BF 1D B3 02 38 01 B0 86 F8
15:21:05.331 设备发送:01 03 05 A2 00 0F A4 E0
15:21:10.322 设备发送:01 03 05 B1 00 03 55 20
15:21:10.353 设备接收:01 03 1E 00 00 00 00 00 00 00 00 00 01 00 00 00 00 00 00 00 00 00 00 00 00 00 00 00 00 00 00 00 00 C8 6B
15:21:15.340 设备接收:01 03 06 00 00 00 00 00 00 21 75
15:21:15.386 设备发送:01 03 04 2B 00 01 F5 32
15:21:20.361 设备接收:01 03 02 02 DE 39 7C
15:21:20.376 设备发送:01 03 04 20 00 01 84 F0
15:21:25.378 设备接收:01 03 02 00 3B F9 97
15:21:25.394 设备发送:01 03 04 05 00 01 95 3B
15:21:30.400 设备接收:01 03 02 00 00 B8 44
15:21:30.416 设备发送:02 03 04 84 00 04 05 23
15:21:35.429 设备接收:02 03 08 13 8A 07 71 FF D6 07 71 9E 06
15:21:35.446 设备发送:02 03 04 8D 00 05 14 E1
15:21:40.444 设备接收:02 03 0A 09 01 0A C1 00 00 00 00 00 00 AC 79
15:21:40.460 设备发送:02 03 04 98 00 05 05 25
15:21:45.480 设备接收:02 03 0A 08 FF 0A C8 00 00 00 00 00 00 2C D8
15:21:45.496 设备发送:02 03 04 A3 00 05 74 E8
15:21:50.474 设备接收:02 03 0A 08 F4 0A B9 00 00 00 00 00 00 3E EF
15:21:50.505 设备发送:02 03 06 84 00 04 04 9B
15:21:55.529 设备接收:02 03 08 00 00 45 C2 00 07 29 E8 43 C8
15:21:55.544 设备发送:02 03 04 04 00 01 C4 C8
15:22:00.535 设备接收:02 03 02 00 02 7D 85
15:22:00.551 设备发送:01 03 05 84 00 06 85 2D
15:22:05.557 设备接收:01 03 0C 1A A1 04 82 03 12 1A A5 04 79 03 0D 58 F1
15:22:05.573 设备发送:01 03 05 8A 00 06 E4 EE
15:22:10.557 设备接收:01 03 0C 1A 7E 04 7A 03 09 1C 04 01 4B 00 ED 15 27
15:22:10.588 设备发送:01 03 05 90 00 06 C5 29
15:22:15.581 设备接收:01 03 0C 1D DC 04 71 03 65 1D 3B 02 4A 01 B6 32 5B
15:22:15.596 设备发送:01 03 05 96 00 06 25 28
15:22:20.605 设备接收:01 03 0C 1E 0F 02 3E 01 BA 1D 98 02 36 01 AD EB 2A
15:22:20.620 设备发送:01 03 05 9C 00 06 05 2A
15:22:25.617 设备接收:01 03 0C 1D 9E 02 49 01 BC 1D DD 02 2D 01 AA CF 28
15:22:25.633 设备发送:02 03 05 A2 00 06 64 D5
15:22:30.638 设备接收:02 03 0C 00 00 00 00 00 00 00 00 00 00 00 00 D0 71
15:22:30.654 设备发送:02 03 05 A8 00 06 44 D7
15:22:35.665 设备接收:02 03 0C 00 00 00 00 00 00 00 00 00 00 00 00 D0 71
15:22:35.681 设备发送:02 03 05 AE 00 06 A4 D6
15:22:40.676 设备接收:02 03 0C 00 00 00 00 00 00 00 00 00 00 00 00 D0 71
15:22:40.692 设备发送:02 03 04 2B 00 01 F5 01
15:22:45.725 设备接收:02 03 02 01 D6 7C 4A
15:22:45.742 设备发送:02 03 04 20 00 01 84 C3
15:22:50.736 设备接收:02 03 02 00 2A 7D 9B
15:22:50.752 设备发送:02 03 04 05 00 01 95 08
15:22:55.754 设备接收:02 03 02 00 00 FC 44
15:22:55.770 设备发送:03 03 04 84 00 04 04 F2
15:23:00.752 设备接收:03 03 08 13 85 03 46 00 0E 03 48 E3 47
15:23:00.767 设备发送:03 03 04 8D 00 05 15 30
15:23:05.775 设备接收:03 03 0A 09 06 04 B6 00 00 00 00 00 00 0E 43
15:23:05.790 设备发送:03 03 04 98 00 05 04 F4
15:23:10.812 设备接收:03 03 0A 09 09 04 BC 00 00 00 00 00 00 E5 B3
15:23:10.828 设备发送:03 03 04 A3 00 05 75 39
15:23:15.809 设备接收:03 03 0A 09 13 04 BC 00 00 00 00 00 00 56 D3
15:23:15.840 设备发送:03 03 06 84 00 04 05 4A
15:23:20.834 设备接收:03 03 08 00 00 1F B6 00 03 4F 7D 51 CB
15:23:21.160 设备发送:03 03 04 04 00 01 C5 19
15:23:25.867 设备接收:03 03 02 00 02 40 45
15:23:25.882 设备发送:03 03 05 84 00 06 84 CF
15:23:30.883 设备接收:03 03 0C 1D BF 02 33 01 AD 1D AF 02 2A 01 A5 31 B8
15:23:30.898 设备发送:03 03 05 8A 00 06 E5 0C
15:23:35.882 设备接收:03 03 0C 00 0B 00 00 00 00 00 00 00 00 00 00 34 55
15:23:35.912 设备发送:03 03 05 90 00 06 C4 CB
15:23:40.912 设备接收:03 03 0C 00 00 00 00 00 00 00 00 00 00 00 00 11 71
15:23:40.958 设备发送:03 03 05 96 00 06 24 CA
15:23:45.956 设备接收:03 03 0C 00 00 00 00 00 00 00 00 00 00 00 00 11 71
15:23:45.972 设备发送:03 03 05 9C 00 06 04 C8
15:23:50.967 设备接收:03 03 0C 00 00 00 00 00 00 00 00 00 00 00 00 11 71
15:23:50.982 设备发送:03 03 05 A2 00 06 65 04
15:23:56.002 设备接收:03 03 0C 00 00 00 00 00 00 00 00 00 00 00 00 11 71
15:23:56.018 设备发送:03 03 05 A8 00 06 45 06
15:24:01.015 设备接收:03 03 0C 00 00 00 00 00 00 00 00 00 00 00 00 11 71
15:24:01.030 设备发送:03 03 05 AE 00 06 A5 07
15:24:06.022 设备接收:03 03 0C 00 00 00 00 00 00 00 00 00 00 00 00 11 71
15:24:06.038 设备发送:03 03 04 2B 00 01 F4 D0
15:24:11.036 设备接收:03 03 02 02 67 81 0E
15:24:11.061 设备发送:03 03 04 20 00 01 85 12
15:24:16.079 设备接收:03 03 02 00 19 00 4E
15:24:16.095 设备发送:03 03 04 05 00 01 94 D9
15:24:21.087 设备接收:03 03 02 00 00 C1 84
15:24:21.103 设备发送:04 03 04 84 00 04 05 45
15:24:26.120 设备接收:04 03 08 13 89 07 82 00 1A 07 83 C6 35
15:24:26.151 设备发送:04 03 04 8D 00 05 14 87
15:24:31.119 设备接收:04 03 0A 09 3A 0A A2 00 00 00 00 00 00 D1 88
15:24:31.149 设备发送:04 03 04 98 00 05 05 43
15:24:36.161 设备接收:04 03 0A 09 36 0A 82 00 00 00 00 00 00 A5 4A
15:24:36.177 设备发送:04 03 04 A3 00 05 74 8E
15:24:41.154 设备接收:04 03 0A 09 4A 0A B2 00 00 00 00 00 00 A5 8B
15:24:41.175 设备发送:04 03 06 84 00 04 04 FD
15:24:46.180 设备接收:04 03 08 00 00 48 21 00 07 FC 74 C7 72
15:24:46.196 设备发送:04 03 04 04 00 01 C4 AE
15:24:51.193 设备接收:04 03 02 00 02 F5 85
15:24:51.224 设备发送:04 03 05 84 00 0F 45 7E
15:24:56.224 设备接收:04 03 1E 04 13 00 05 00 00 04 05 00 00 00 00 19 2A 04 71 02 DC 17 74 02 45 01 5D 04 12 00 00 00 00 68 4F
15:24:56.239 设备发送:04 03 05 93 00 0F F5 7A
15:25:01.240 设备接收:04 03 1E 1C 0B 01 64 00 FF 1B C5 01 7C 01 0E 1C 11 02 28 01 8C 04 17 00 05 00 00 04 18 00 02 00 00 2A D0
15:25:01.256 设备发送:04 03 05 A2 00 0F A4 B5
15:25:06.267 设备接收:04 03 1E 00 08 00 00 00 00 00 08 00 02 00 00 00 00 00 00 00 00 00 00 00 00 00 00 00 00 00 00 00 00 40 F1
15:25:06.282 设备发送:04 03 05 B1 00 03 55 75
15:25:11.303 设备接收:04 03 06 00 00 00 00 00 00 1E 25
15:25:11.317 设备发送:04 03 04 2B 00 01 F5 67
15:25:16.323 设备接收:04 03 02 02 EC 74 A9
15:25:16.338 设备发送:04 03 04 20 00 01 84 A5
15:25:21.314 设备接收:04 03 02 00 28 74 5A
15:25:21.330 设备发送:04 03 04 05 00 01 95 6E
15:25:26.353 设备接收:04 03 02 00 00 74 44
15:25:26.368 设备发送:05 03 04 84 00 04 04 94
15:25:31.350 设备接收:05 03 08 13 88 0C C6 FF DB 0C C7 45 96
15:25:31.366 设备发送:05 03 04 8D 00 05 15 56
15:25:36.393 设备接收:05 03 0A 09 3D 11 FC 00 00 00 00 00 00 0A 43
15:25:36.408 设备发送:05 03 04 98 00 05 04 92
15:25:41.410 设备接收:05 03 0A 09 3B 11 E2 00 00 00 00 00 00 DF E2
15:25:41.425 设备发送:05 03 04 A3 00 05 75 5F
15:25:46.462 设备发送:05 03 04 A3 00 05 75 5F
15:25:51.434 设备接收:05 03 0A 09 4E 11 E5 00 00 00 00 00 00 F3 B0
15:25:51.481 设备发送:05 03 06 84 00 04 05 2C
15:25:56.479 设备接收:05 03 08 00 00 83 8B 00 0D E8 80 E5 68
15:25:56.495 设备发送:05 03 04 04 00 01 C5 7F
15:26:01.483 设备接收:05 03 02 00 02 C8 45
15:26:01.499 设备发送:05 03 05 84 00 0F 44 AF
15:26:06.492 设备接收:05 03 1E 04 39 00 00 00 00 04 3B 00 00 00 00 04 2F 00 01 00 00 1C AE 03 99 02 A4 17 B0 04 39 02 90 33 58
15:26:06.504 设备发送:05 03 05 93 00 0F F4 AB
15:26:11.504 设备接收:05 03 1E 17 89 04 62 02 A4 16 69 04 52 02 7A 1D E3 03 CA 02 E6 04 39 00 03 00 00 04 37 00 04 00 00 B7 98
15:26:11.550 设备发送:05 03 05 A2 00 0F A5 64
15:26:16.551 设备接收:05 03 1E 00 00 00 00 00 00 00 00 00 00 00 00 00 00 00 00 00 00 00 00 00 00 00 00 00 00 00 00 00 00 69 7B
15:26:16.567 设备发送:05 03 05 B1 00 03 54 A4
15:26:21.563 设备接收:05 03 06 00 00 00 00 00 00 13 B5
15:26:21.578 设备发送:05 03 04 2B 00 01 F4 B6
15:26:26.584 设备接收:05 03 02 02 E9 89 6A
15:26:26.616 设备发送:05 03 04 20 00 01 85 74
15:26:31.596 设备接收:05 03 02 00 2A C8 5B
15:26:31.627 设备发送:05 03 04 05 00 01 94 BF
15:26:36.630 设备接收:05 03 02 00 00 49 84
15:26:36.644 设备发送:06 03 04 84 00 04 04 A7
15:26:41.666 设备接收:06 03 08 13 86 06 FA FF C3 07 03 73 19
15:26:41.685 设备发送:06 03 04 8D 00 05 15 65
15:26:46.655 设备接收:06 03 0A 09 5F 09 BC 00 00 00 00 00 00 FF 8C
15:26:46.686 设备发送:06 03 04 98 00 05 04 A1
15:26:51.691 设备接收:06 03 0A 09 52 09 C5 00 00 00 00 00 00 4F DB
15:26:51.707 设备发送:06 03 04 A3 00 05 75 6C
15:26:56.700 设备接收:06 03 0A 09 58 09 BD 00 00 00 00 00 00 C9 7C
15:26:56.715 设备发送:06 03 06 84 00 04 05 1F
15:27:01.710 设备接收:06 03 08 00 00 45 17 00 07 2C E7 18 7E
15:27:01.740 设备发送:06 03 04 04 00 01 C5 4C
15:27:06.725 设备接收:06 03 02 00 02 8C 45
15:27:06.773 设备发送:06 03 05 84 00 0F 44 9C
15:27:11.752 设备接收:06 03 1E 1A FE 04 4B 02 F8 1A 89 02 1F 01 71 19 1D 04 4C 02 C3 06 1D 00 0B 00 01 00 00 00 00 00 00 5E 08
15:27:11.784 设备发送:06 03 05 93 00 0F F4 98
15:27:16.777 设备接收:06 03 1E 00 00 00 00 00 00 00 00 00 00 00 00 00 00 00 00 00 00 00 00 00 00 00 00 00 00 00 00 00 00 DD 7B
15:27:16.817 设备发送:06 03 05 A2 00 0F A5 57
15:27:21.822 设备接收:06 03 1E 00 00 00 00 00 00 00 00 00 00 00 00 00 00 00 00 00 00 00 00 00 00 00 00 00 00 00 00 00 00 DD 7B
15:27:21.836 设备发送:06 03 05 B1 00 03 54 97
15:27:26.854 设备接收:06 03 06 00 00 00 00 00 00 07 45
15:27:26.870 设备发送:06 03 04 2B 00 01 F4 85
15:27:31.878 设备接收:06 03 02 01 DC 0D 8D
15:27:31.892 设备发送:06 03 04 20 00 01 85 47
15:27:36.870 设备接收:06 03 02 00 1E 8D 8C
15:27:36.885 设备发送:06 03 04 05 00 01 94 8C
15:27:41.915 设备接收:06 03 02 00 00 0D 84
15:27:41.930 设备发送:01 03 04 84 00 04 05 10
15:27:46.925 设备接收:01 03 08 13 86 14 08 FF D4 14 08 AF 39
15:27:46.955 设备发送:01 03 04 8D 00 05 14 D2
15:27:51.961 设备接收:01 03 0A 08 E5 1D 4B 00 00 00 00 00 00 68 59
15:27:51.977 设备发送:01 03 04 98 00 05 05 16
15:27:56.971 设备接收:01 03 0A 08 E2 1D 28 00 00 00 00 00 00 1D 6F
15:27:56.987 设备发送:01 03 04 A3 00 05 74 DB
15:28:01.981 设备接收:01 03 0A 08 F5 1D 31 00 00 00 00 00 00 7E 5E
15:28:02.006 设备发送:01 03 06 84 00 04 04 A8
15:28:06.992 设备接收:01 03 08 00 00 CE B8 00 13 63 8B BC B0
15:28:07.070 设备发送:01 03 04 04 00 01 C4 FB
15:28:12.033 设备接收:01 03 02 00 02 39 85
15:28:12.049 设备发送:01 03 05 84 00 0F 45 2B
15:28:17.043 设备接收:01 03 1E 1A 79 04 4B 02 E9 1A A6 03 FC 02 B8 1A 7B 04 3B 02 DE 1C 51 01 37 00 E1 1E 2C 04 28 03 36 82 1D
15:28:17.058 设备发送:01 03 05 93 00 0F F5 2F
15:28:22.067 设备接收:01 03 1E 1D 8C 02 2A 01 A3 1E 0F 02 24 01 A6 1D BE 02 16 01 96 1D 9D 02 2D 01 A6 1D 3B 02 10 01 8B 71 BF
15:28:22.082 设备发送:01 03 05 A2 00 0F A4 E0
15:28:23.78300

