
10:01:47.728 设备接收:01 03 08 00 00 1C 68 00 13 51 B6 BB A1
10:01:47.775 设备发送:01 03 04 04 00 01 C4 FB
10:01:52.781 设备接收:01 03 02 00 02 39 85
10:01:52.796 设备发送:01 03 05 84 00 0F 45 2B
10:01:57.787 设备接收:01 03 1E 1A A1 05 96 03 CF 1A CC 05 92 03 D2 1A 7A 05 8F 03 C4 1D 66 01 6D 01 13 1D DB 05 88 04 3A 5B CD
10:01:57.804 设备发送:01 03 05 93 00 0F F5 2F
10:02:02.815 设备接收:01 03 1E 1E 04 02 CB 02 25 1E 10 02 C4 02 21 1D 97 02 BF 02 15 1D 9E 02 D2 02 24 1E 04 02 C7 02 22 5A C0
10:02:02.845 设备发送:01 03 05 A2 00 0F A4 E0
10:02:07.837 设备接收:01 03 1E 00 00 00 00 00 00 00 00 00 02 00 00 00 00 00 00 00 00 00 00 00 00 00 00 00 00 00 00 00 00 FB 58
10:02:07.868 设备发送:01 03 05 B1 00 03 55 20
10:02:12.870 设备接收:01 03 06 00 00 00 00 00 00 21 75
10:02:12.886 设备发送:01 03 04 2B 00 01 F5 32
10:02:17.876 设备接收:01 03 02 02 DE 39 7C
10:02:17.892 设备发送:01 03 04 20 00 01 84 F0
10:02:22.917 设备接收:01 03 02 00 3C B8 55
10:02:22.932 设备发送:01 03 04 05 00 01 95 3B
10:02:27.919 设备接收:01 03 02 00 00 B8 44
10:02:27.935 设备发送:02 03 04 84 00 04 05 23
10:02:32.935 设备接收:02 03 08 13 8C 09 46 FF E9 09 46 79 56
10:02:32.951 设备发送:02 03 04 8D 00 05 14 E1
10:02:37.945 设备接收:02 03 0A 09 21 0D 3A 00 00 00 00 00 00 3E 91
10:02:37.961 设备发送:02 03 04 98 00 05 05 25
10:02:42.956 设备接收:02 03 0A 09 1E 0D 49 00 00 00 00 00 00 69 A7
10:02:43.019 设备发送:02 03 04 A3 00 05 74 E8
10:02:47.987 设备接收:02 03 0A 09 16 0D 3C 00 00 00 00 00 00 2A A0
10:02:48.003 设备发送:02 03 06 84 00 04 04 9B
10:02:53.014 设备接收:02 03 08 00 00 09 BD 00 07 23 E8 5E AE
10:02:53.029 设备发送:02 03 04 04 00 01 C4 C8
10:02:58.044 设备接收:02 03 02 00 02 7D 85
10:02:58.075 设备发送:01 03 05 84 00 06 85 2D
10:03:03.069 设备接收:01 03 0C 1A A3 05 9C 03 D3 1A CD 05 96 03 D5 02 7A
10:03:03.084 设备发送:01 03 05 8A 00 06 E4 EE
10:03:08.083 设备接收:01 03 0C 1A 56 05 9B 03 C7 1C A5 01 8E 01 24 42 F8
10:03:08.099 设备发送:01 03 05 90 00 06 C5 29
10:03:13.075 设备接收:01 03 0C 1E 04 05 84 04 3D 1D 8B 02 D7 02 26 96 E6
10:03:13.106 设备发送:01 03 05 96 00 06 25 28
10:03:18.122 设备接收:01 03 0C 1E 0F 02 C6 02 23 1E 0E 02 B7 02 17 58 B7
10:03:18.139 设备发送:01 03 05 9C 00 06 05 2A
10:03:23.143 设备接收:01 03 0C 1D ED 02 CD 02 25 1E 04 02 CB 02 25 CD F4
10:03:23.158 设备发送:02 03 05 A2 00 06 64 D5
10:03:28.138 设备接收:02 03 0C 00 00 00 00 00 00 00 00 00 00 00 00 D0 71
10:03:28.184 设备发送:02 03 05 A8 00 06 44 D7
10:03:33.177 设备接收:02 03 0C 00 00 00 00 00 00 00 00 00 00 00 00 D0 71
10:03:33.192 设备发送:02 03 05 AE 00 06 A4 D6
10:03:38.191 设备接收:02 03 0C 00 00 00 00 00 00 00 00 00 00 00 00 D0 71
10:03:38.206 设备发送:02 03 04 2B 00 01 F5 01
10:03:43.211 设备接收:02 03 02 01 D6 7C 4A
10:03:43.241 设备发送:02 03 04 20 00 01 84 C3
10:03:48.221 设备接收:02 03 02 00 22 7C 5D
10:03:48.236 设备发送:02 03 04 05 00 01 95 08
10:03:53.261 设备接收:02 03 02 00 00 FC 44
10:03:53.277 设备发送:03 03 04 84 00 04 04 F2
10:03:58.293 设备接收:03 03 08 13 8B 04 21 00 0D 04 22 4A E7
10:03:58.308 设备发送:03 03 04 8D 00 05 15 30
10:04:03.308 设备接收:03 03 0A 09 25 05 DE 00 00 00 00 00 00 AB 78
10:04:03.323 设备发送:03 03 04 98 00 05 04 F4
10:04:08.303 设备接收:03 03 0A 09 2D 05 E2 00 00 00 00 00 00 30 BB
10:04:08.319 设备发送:03 03 04 A3 00 05 75 39
10:04:13.318 设备接收:03 03 0A 09 37 05 E5 00 00 00 00 00 00 F5 1B
10:04:13.349 设备发送:03 03 06 84 00 04 05 4A
10:04:18.339 设备接收:03 03 08 00 00 05 35 00 03 4C D7 96 A0
10:04:18.371 设备发送:03 03 04 04 00 01 C5 19
10:04:23.386 设备接收:03 03 02 00 02 40 45
10:04:23.402 设备发送:03 03 05 84 00 06 84 CF
10:04:28.385 设备接收:03 03 0C 1E 10 02 C4 02 21 1D D7 02 C1 02 1B 78 FD
10:04:28.401 设备发送:03 03 05 8A 00 06 E5 0C
10:04:33.400 设备接收:03 03 0C 00 0B 00 00 00 00 00 00 00 00 00 00 34 55
10:04:33.446 设备发送:03 03 05 90 00 06 C4 CB
10:04:38.444 设备接收:03 03 0C 00 00 00 00 00 00 00 00 00 00 00 00 11 71
10:04:38.459 设备发送:03 03 05 96 00 06 24 CA
10:04:43.458 设备接收:03 03 0C 00 00 00 00 00 00 00 00 00 00 00 00 11 71
10:04:43.490 设备发送:03 03 05 9C 00 06 04 C8
10:04:48.469 设备接收:03 03 0C 00 00 00 00 00 00 00 00 00 00 00 00 11 71
10:04:48.500 设备发送:03 03 05 A2 00 06 65 04
10:04:53.498 设备接收:03 03 0C 00 00 00 00 00 00 00 00 00 00 00 00 11 71
10:04:53.513 设备发送:03 03 05 A8 00 06 45 06
10:04:58.509 设备接收:03 03 0C 00 00 00 00 00 00 00 00 00 00 00 00 11 71
10:04:58.525 设备发送:03 03 05 AE 00 06 A5 07
10:05:03.523 设备接收:03 03 0C 00 00 00 00 00 00 00 00 00 00 00 00 11 71
10:05:03.554 设备发送:03 03 04 2B 00 01 F4 D0
10:05:08.535 设备接收:03 03 02 02 67 81 0E
10:05:08.566 设备发送:03 03 04 20 00 01 85 12
10:05:13.558 设备接收:03 03 02 00 19 00 4E
10:05:13.566 设备发送:03 03 04 05 00 01 94 D9
10:05:18.605 设备接收:03 03 02 00 00 C1 84
10:05:18.618 设备发送:04 03 04 84 00 04 05 45
10:05:23.616 设备接收:04 03 08 13 89 09 0B 00 0F 09 0B 0F 06
10:05:23.625 设备发送:04 03 04 8D 00 05 14 87
10:05:28.618 设备接收:04 03 0A 09 47 0C AE 00 00 00 00 00 00 A0 F0
10:05:28.627 设备发送:04 03 04 98 00 05 05 43
10:05:33.655 设备接收:04 03 0A 09 41 0C D1 00 00 00 00 00 00 05 97
10:05:33.665 设备发送:04 03 04 A3 00 05 74 8E
10:05:38.674 设备接收:04 03 0A 09 4B 0C CA 00 00 00 00 00 00 D0 36
10:05:38.690 设备发送:04 03 06 84 00 04 04 FD
10:05:43.681 设备接收:04 03 08 00 00 04 3C 00 07 F5 AA A3 74
10:05:43.713 设备发送:04 03 04 04 00 01 C4 AE
10:05:48.726 设备接收:04 03 02 00 02 F5 85
10:05:48.743 设备发送:04 03 05 84 00 0F 45 7E
10:05:53.735 设备接收:04 03 1E 03 BA 00 02 00 00 03 AC 00 00 00 00 16 5C 05 6C 03 1B 17 01 01 8D 00 EA 03 B8 00 00 00 00 1D 97
10:05:53.752 设备发送:04 03 05 93 00 0F F5 7A
10:05:58.746 设备接收:04 03 1E 18 E9 02 B4 01 B9 19 6E 02 C3 01 CC 1A 30 02 B3 01 CF 03 BF 00 04 00 00 03 BD 00 03 00 00 58 2B
10:05:58.762 设备发送:04 03 05 A2 00 0F A4 B5
10:06:03.768 设备接收:04 03 1E 00 09 00 00 00 00 00 08 00 01 00 00 00 00 00 00 00 00 00 00 00 00 00 00 00 00 00 00 00 00 B3 C3
10:06:03.790 设备发送:04 03 05 B1 00 03 55 75
10:06:08.776 设备接收:04 03 06 00 00 00 00 00 00 1E 25
10:06:08.785 设备发送:04 03 04 2B 00 01 F5 67
10:06:13.818 设备接收:04 03 02 02 EC 74 A9
10:06:13.828 设备发送:04 03 04 20 00 01 84 A5
10:06:18.808 设备接收:04 03 02 00 34 75 93
10:06:18.859 设备发送:04 03 04 05 00 01 95 6E
10:06:23.849 设备接收:04 03 02 00 00 74 44
10:06:23.869 设备发送:05 03 04 84 00 04 04 94
10:06:28.884 设备接收:05 03 08 13 8B 12 18 00 10 12 18 D4 E9
10:06:28.897 设备发送:05 03 04 8D 00 05 15 56
10:06:33.889 设备接收:05 03 0A 09 27 19 CC 00 00 00 00 00 00 88 86
10:06:33.911 设备发送:05 03 04 98 00 05 04 92
10:06:38.907 设备接收:05 03 0A 09 21 19 B5 00 00 00 00 00 00 4B E1
10:06:38.930 设备发送:05 03 04 A3 00 05 75 5F
10:06:43.925 设备接收:05 03 0A 09 2F 19 CA 00 00 00 00 00 00 89 46
10:06:43.947 设备发送:05 03 06 84 00 04 05 2C
10:06:48.936 设备接收:05 03 08 00 00 10 8A 00 0D DD 00 D3 3B
10:06:48.958 设备发送:05 03 04 04 00 01 C5 7F
10:06:53.968 设备接收:05 03 02 00 02 C8 45
10:06:53.990 设备发送:05 03 05 84 00 0F 44 AF
10:06:58.983 设备接收:05 03 1E 04 55 00 01 00 00 04 58 00 00 00 00 04 4A 00 01 00 00 1E 8F 05 7B 04 49 17 D9 05 9D 03 6D 0B 78
10:06:59.036 设备发送:05 03 05 93 00 0F F4 AB
10:07:04.029 设备接收:05 03 1E 17 D9 05 B5 03 7C 17 33 05 AA 03 5D 1E 5A 05 99 04 5A 04 56 00 04 00 00 04 50 00 02 00 00 FB DD
10:07:04.050 设备发送:05 03 05 A2 00 0F A5 64
10:07:09.035 设备接收:05 03 1E 00 00 00 00 00 00 00 00 00 00 00 00 00 00 00 00 00 00 00 00 00 00 00 00 00 00 00 00 00 00 69 7B
10:07:09.045 设备发送:05 03 05 B1 00 03 54 A4
10:07:14.050 设备接收:05 03 06 00 00 00 00 00 00 13 B5
10:07:14.070 设备发送:05 03 04 2B 00 01 F4 B6
10:07:19.078 设备接收:05 03 02 02 E9 89 6A
10:07:19.098 设备发送:05 03 04 20 00 01 85 74
10:07:24.105 设备接收:05 03 02 00 26 C8 5E
10:07:24.113 设备发送:05 03 04 05 00 01 94 BF
10:07:29.131 设备接收:05 03 02 00 00 49 84
10:07:29.141 设备发送:06 03 04 84 00 04 04 A7
10:07:34.173 设备发送:06 03 04 84 00 04 04 A7
10:07:39.192 设备发送:06 03 04 84 00 04 04 A7
10:07:44.187 设备发送:06 03 04 8D 00 05 15 65
10:07:49.206 设备发送:06 03 04 8D 00 05 15 65
10:07:54.228 设备发送:06 03 04 8D 00 05 15 65
10:07:59.270 设备发送:06 03 04 98 00 05 04 A1
10:08:04.272 设备发送:06 03 04 98 00 05 04 A1
10:08:09.303 设备发送:06 03 04 98 00 05 04 A1
10:08:14.333 设备发送:06 03 04 A3 00 05 75 6C
10:08:19.354 设备发送:06 03 04 A3 00 05 75 6C
10:08:24.360 设备发送:06 03 04 A3 00 05 75 6C
10:08:29.380 设备发送:06 03 06 84 00 04 05 1F
10:08:34.414 设备发送:06 03 06 84 00 04 05 1F
10:08:39.427 设备发送:06 03 06 84 00 04 05 1F
10:08:44.451 设备发送:06 03 04 04 00 01 C5 4C
10:08:49.464 设备发送:06 03 04 04 00 01 C5 4C
10:08:54.471 设备发送:06 03 04 04 00 01 C5 4C
10:08:59.489 设备发送:06 03 05 84 00 0F 44 9C
10:09:04.522 设备发送:06 03 05 84 00 0F 44 9C
10:09:09.541 设备发送:06 03 05 84 00 0F 44 9C
10:09:14.554 设备发送:06 03 05 93 00 0F F4 98
10:09:19.587 设备发送:06 03 05 93 00 0F F4 98
10:09:24.598 设备发送:06 03 05 93 00 0F F4 98
10:09:29.611 设备发送:06 03 05 A2 00 0F A5 57
10:09:34.630 设备发送:06 03 05 A2 00 0F A5 57
10:09:39.657 设备发送:06 03 05 A2 00 0F A5 57
10:09:44.683 设备发送:06 03 05 B1 00 03 54 97
10:09:49.698 设备发送:06 03 05 B1 00 03 54 97

