
13:09:21.384 设备接收:01 03 02 02 E0 B8 AC
13:09:21.431 设备发送:01 03 04 20 00 01 84 F0
13:09:26.429 设备接收:01 03 02 00 3B F9 97
13:09:26.444 设备发送:01 03 04 05 00 01 95 3B
13:09:31.441 设备接收:01 03 02 00 00 B8 44
13:09:31.457 设备发送:02 03 04 84 00 04 05 23
13:09:36.446 设备接收:02 03 08 13 8A 0B F9 FF F0 0B FC 5A 7B
13:09:36.461 设备发送:02 03 04 8D 00 05 14 E1
13:09:41.463 设备接收:02 03 0A 09 20 11 20 00 00 00 00 00 00 89 99
13:09:41.479 设备发送:02 03 04 98 00 05 05 25
13:09:46.480 设备接收:02 03 0A 09 1C 11 24 00 00 00 00 00 00 CD 58
13:09:46.496 设备发送:02 03 04 A3 00 05 74 E8
13:09:51.496 设备接收:02 03 0A 09 15 11 28 00 00 00 00 00 00 6B 08
13:09:51.542 设备发送:02 03 06 84 00 04 04 9B
13:09:56.526 设备接收:02 03 08 00 00 2B 7C 00 07 51 71 81 37
13:09:56.542 设备发送:02 03 04 04 00 01 C4 C8
13:10:01.536 设备接收:02 03 02 00 02 7D 85
13:10:01.552 设备发送:02 03 05 84 00 06 85 1E
13:10:06.569 设备接收:02 03 0C 1D 0F 03 D1 02 D7 1C D0 03 BE 02 C2 A9 D8
13:10:06.584 设备发送:02 03 05 8A 00 06 E4 DD
13:10:11.582 设备接收:02 03 0C 1C C7 03 C8 02 C9 14 79 07 A0 03 FF 27 CE
13:10:11.613 设备发送:02 03 05 90 00 06 C5 1A
13:10:16.604 设备接收:02 03 0C 00 00 00 00 00 00 00 00 00 00 00 00 D0 71
13:10:16.635 设备发送:02 03 05 96 00 06 25 1B
13:10:21.642 设备接收:02 03 0C 00 00 00 00 00 00 00 00 00 00 00 00 D0 71
13:10:21.657 设备发送:02 03 05 9C 00 06 05 19
13:10:26.637 设备接收:02 03 0C 00 00 00 00 00 00 00 00 00 00 00 00 D0 71
13:10:26.652 设备发送:02 03 05 A2 00 06 64 D5
13:10:31.646 设备接收:02 03 0C 00 00 00 00 00 00 00 00 00 00 00 00 D0 71
13:10:31.678 设备发送:02 03 05 A8 00 06 44 D7
13:10:36.692 设备接收:02 03 0C 00 00 00 00 00 00 00 00 00 00 00 00 D0 71
13:10:36.708 设备发送:02 03 05 AE 00 06 A4 D6
13:10:41.716 设备接收:02 03 0C 00 00 00 00 00 00 00 00 00 00 00 00 D0 71
13:10:41.733 设备发送:02 03 04 2B 00 01 F5 01
13:10:46.725 设备接收:02 03 02 01 CB BC 43
13:10:46.741 设备发送:02 03 04 20 00 01 84 C3
13:10:51.737 设备接收:02 03 02 00 30 FC 50
13:10:51.769 设备发送:02 03 04 05 00 01 95 08
13:10:56.763 设备接收:02 03 02 00 00 FC 44
13:10:56.779 设备发送:03 03 04 84 00 04 04 F2
13:11:01.775 设备接收:03 03 08 13 89 05 56 FF F2 05 59 DD 6A
13:11:01.791 设备发送:03 03 04 8D 00 05 15 30
13:11:06.826 设备接收:03 03 0A 09 2D 07 8A 00 00 00 00 00 00 58 A4
13:11:06.842 设备发送:03 03 04 98 00 05 04 F4
13:11:11.824 设备接收:03 03 0A 09 2F 07 8A 00 00 00 00 00 00 41 C4
13:11:11.855 设备发送:03 03 04 A3 00 05 75 39
13:11:16.853 设备接收:03 03 0A 09 3D 07 8E 00 00 00 00 00 00 D0 A4
13:11:16.869 设备发送:03 03 06 84 00 04 05 4A
13:11:21.876 设备接收:03 03 08 00 00 13 ED 00 03 61 B6 68 FD
13:11:21.892 设备发送:03 03 04 04 00 01 C5 19
13:11:26.888 设备接收:03 03 02 00 02 40 45
13:11:26.904 设备发送:03 03 05 84 00 06 84 CF
13:11:31.913 设备接收:03 03 0C 1D 10 03 B2 02 C0 1C E3 03 AA 02 B5 D3 D9
13:11:31.927 设备发送:03 03 05 8A 00 06 E5 0C
13:11:36.942 设备接收:03 03 0C 00 0B 00 01 00 00 00 00 00 00 00 00 39 C5
13:11:36.958 设备发送:03 03 05 90 00 06 C4 CB
13:11:41.957 设备接收:03 03 0C 00 00 00 00 00 00 00 00 00 00 00 00 11 71
13:11:41.973 设备发送:03 03 05 96 00 06 24 CA
13:11:46.972 设备接收:03 03 0C 00 00 00 00 00 00 00 00 00 00 00 00 11 71
13:11:46.988 设备发送:03 03 05 9C 00 06 04 C8
13:11:51.970 设备接收:03 03 0C 00 00 00 00 00 00 00 00 00 00 00 00 11 71
13:11:52.001 设备发送:03 03 05 A2 00 06 65 04
13:11:57.016 设备接收:03 03 0C 00 00 00 00 00 00 00 00 00 00 00 00 11 71
13:11:57.032 设备发送:03 03 05 A8 00 06 45 06
13:12:02.021 设备接收:03 03 0C 00 00 00 00 00 00 00 00 00 00 00 00 11 71
13:12:02.052 设备发送:03 03 05 AE 00 06 A5 07
13:12:07.050 设备接收:03 03 0C 00 00 00 00 00 00 00 00 00 00 00 00 11 71
13:12:07.068 设备发送:03 03 04 2B 00 01 F4 D0
13:12:12.057 设备接收:03 03 02 02 65 00 CF
13:12:12.072 设备发送:03 03 04 20 00 01 85 12
13:12:17.087 设备接收:03 03 02 00 19 00 4E
13:12:17.103 设备发送:03 03 04 05 00 01 94 D9
13:12:22.125 设备接收:03 03 02 00 00 C1 84
13:12:22.141 设备发送:04 03 04 84 00 04 05 45
13:12:27.124 设备接收:04 03 08 13 87 0D 7E FF D6 0D 7F 8F 81
13:12:27.140 设备发送:04 03 04 8D 00 05 14 87
13:12:32.171 设备接收:04 03 0A 09 21 13 4E 00 00 00 00 00 00 83 D0
13:12:32.186 设备发送:04 03 04 98 00 05 05 43
13:12:37.157 设备接收:04 03 0A 09 22 13 41 00 00 00 00 00 00 68 20
13:12:37.172 设备发送:04 03 04 A3 00 05 74 8E
13:12:42.190 设备接收:04 03 0A 09 2A 13 4F 00 00 00 00 00 00 E0 20
13:12:42.205 设备发送:04 03 06 84 00 04 04 FD
13:12:47.212 设备接收:04 03 08 00 00 2B B2 00 08 24 CA A0 8F
13:12:47.228 设备发送:04 03 04 04 00 01 C4 AE
13:12:52.226 设备接收:04 03 02 00 02 F5 85
13:12:52.241 设备发送:04 03 05 84 00 0F 45 7E
13:12:57.256 设备接收:04 03 1E 03 EB 00 05 00 00 03 DD 00 00 00 00 18 2C 07 59 04 8C 16 9B 03 B6 02 26 03 E9 00 00 00 00 A4 60
13:12:57.287 设备发送:04 03 05 93 00 0F F5 7A
13:13:02.252 设备接收:04 03 1E 19 A7 03 9A 02 5D 19 7D 03 AA 02 64 1B 41 03 A7 02 8C 03 EE 00 02 00 00 03 EB 00 00 00 00 F4 1F
13:13:02.268 设备发送:04 03 05 A2 00 0F A4 B5
13:13:07.292 设备接收:04 03 1E 00 08 00 00 00 00 00 08 00 01 00 00 00 00 00 00 00 00 00 00 00 00 00 00 00 00 00 00 00 00 73 C2
13:13:07.308 设备发送:04 03 05 B1 00 03 55 75
13:13:10.15800

