
15:36:21.957 设备接收:01 03 1E 00 00 00 00 00 00 00 00 00 01 00 00 00 00 00 00 00 00 00 00 00 00 00 00 00 00 00 00 00 00 C8 6B
15:36:21.972 设备发送:01 03 05 B1 00 03 55 20
15:36:26.981 设备接收:01 03 06 00 00 00 00 00 00 21 75
15:36:27.013 设备发送:01 03 04 2B 00 01 F5 32
15:36:32.009 设备接收:01 03 02 02 E0 B8 AC
15:36:32.025 设备发送:01 03 04 20 00 01 84 F0
15:36:37.025 设备接收:01 03 02 00 3C B8 55
15:36:37.057 设备发送:01 03 04 05 00 01 95 3B
15:36:42.052 设备接收:01 03 02 00 00 B8 44
15:36:42.068 设备发送:02 03 04 84 00 04 05 23
15:36:47.055 设备接收:02 03 08 13 89 06 B1 FF C8 06 B1 CD 00
15:36:47.070 设备发送:02 03 04 8D 00 05 14 E1
15:36:52.071 设备接收:02 03 0A 08 FC 09 B6 00 00 00 00 00 00 E6 3A
15:36:52.086 设备发送:02 03 04 98 00 05 05 25
15:36:57.087 设备接收:02 03 0A 08 FD 09 BA 00 00 00 00 00 00 27 AA
15:36:57.117 设备发送:02 03 04 A3 00 05 74 E8
15:37:02.144 设备接收:02 03 0A 08 EF 09 AA 00 00 00 00 00 00 E2 CB
15:37:02.160 设备发送:02 03 06 84 00 04 04 9B
15:37:07.142 设备接收:02 03 08 00 00 4A 0C 00 07 39 24 27 72
15:37:07.158 设备发送:02 03 04 04 00 01 C4 C8
15:37:12.174 设备接收:02 03 02 00 02 7D 85
15:37:12.190 设备发送:02 03 05 84 00 06 85 1E
15:37:17.170 设备接收:02 03 0C 1E C7 02 0D 01 9E 1E A6 02 02 01 93 B3 53
15:37:17.189 设备发送:02 03 05 8A 00 06 E4 DD
15:37:22.206 设备接收:02 03 0C 1E DD 01 F4 01 8B 16 15 03 F7 02 3D 88 C1
15:37:22.222 设备发送:02 03 05 90 00 06 C5 1A
15:37:27.238 设备接收:02 03 0C 00 00 00 00 00 00 00 00 00 00 00 00 D0 71
15:37:27.272 设备发送:02 03 05 96 00 06 25 1B
15:37:32.251 设备接收:02 03 0C 00 00 00 00 00 00 00 00 00 00 00 00 D0 71
15:37:32.266 设备发送:02 03 05 9C 00 06 05 19
15:37:37.242 设备接收:02 03 0C 00 00 00 00 00 00 00 00 00 00 00 00 D0 71
15:37:37.273 设备发送:02 03 05 A2 00 06 64 D5
15:37:42.295 设备接收:02 03 0C 00 00 00 00 00 00 00 00 00 00 00 00 D0 71
15:37:42.312 设备发送:02 03 05 A8 00 06 44 D7
15:37:47.295 设备接收:02 03 0C 00 00 00 00 00 00 00 00 00 00 00 00 D0 71
15:37:47.311 设备发送:02 03 05 AE 00 06 A4 D6
15:37:52.320 设备接收:02 03 0C 00 00 00 00 00 00 00 00 00 00 00 00 D0 71
15:37:52.352 设备发送:02 03 04 2B 00 01 F5 01
15:37:57.354 设备接收:02 03 02 01 D5 3C 4B
15:37:57.372 设备发送:02 03 04 20 00 01 84 C3
15:38:02.345 设备接收:02 03 02 00 23 BD 9D
15:38:02.391 设备发送:02 03 04 05 00 01 95 08
15:38:07.390 设备接收:02 03 02 00 00 FC 44
15:38:07.406 设备发送:03 03 04 84 00 04 04 F2
15:38:12.388 设备接收:03 03 08 13 8A 02 F9 00 09 02 FB F9 A9
15:38:12.403 设备发送:03 03 04 8D 00 05 15 30
15:38:17.436 设备接收:03 03 0A 09 04 04 4D 00 00 00 00 00 00 5D EC
15:38:17.451 设备发送:03 03 04 98 00 05 04 F4
15:38:22.430 设备接收:03 03 0A 09 03 04 4C 00 00 00 00 00 00 6B 1C
15:38:22.478 设备发送:03 03 04 A3 00 05 75 39
15:38:27.475 设备接收:03 03 0A 09 0F 04 4F 00 00 00 00 00 00 0D 1C
15:38:27.491 设备发送:03 03 06 84 00 04 05 4A
15:38:32.487 设备接收:03 03 08 00 00 21 C0 00 03 56 82 D7 0E
15:38:32.518 设备发送:03 03 04 04 00 01 C5 19
15:38:37.508 设备接收:03 03 02 00 02 40 45
15:38:37.524 设备发送:03 03 05 84 00 06 84 CF
15:38:42.546 设备接收:03 03 0C 1E BB 01 F3 01 88 1E 96 01 EC 01 81 88 10
15:38:42.562 设备发送:03 03 05 8A 00 06 E5 0C
15:38:47.561 设备接收:03 03 0C 00 0B 00 01 00 00 00 00 00 00 00 00 39 C5
15:38:47.577 设备发送:03 03 05 90 00 06 C4 CB
15:38:52.579 设备接收:03 03 0C 00 00 00 00 00 00 00 00 00 00 00 00 11 71
15:38:52.594 设备发送:03 03 05 96 00 06 24 CA
15:38:57.607 设备接收:03 03 0C 00 00 00 00 00 00 00 00 00 00 00 00 11 71
15:38:57.623 设备发送:03 03 05 9C 00 06 04 C8
15:39:02.609 设备接收:03 03 0C 00 00 00 00 00 00 00 00 00 00 00 00 11 71
15:39:02.624 设备发送:03 03 05 A2 00 06 65 04
15:39:07.616 设备接收:03 03 0C 00 00 00 00 00 00 00 00 00 00 00 00 11 71
15:39:07.647 设备发送:03 03 05 A8 00 06 45 06
15:39:12.669 设备接收:03 03 0C 00 00 00 00 00 00 00 00 00 00 00 00 11 71
15:39:12.700 设备发送:03 03 05 AE 00 06 A5 07
15:39:17.674 设备接收:03 03 0C 00 00 00 00 00 00 00 00 00 00 00 00 11 71
15:39:17.708 设备发送:03 03 04 2B 00 01 F4 D0
15:39:22.714 设备接收:03 03 02 02 70 C1 00
15:39:22.729 设备发送:03 03 04 20 00 01 85 12
15:39:27.710 设备接收:03 03 02 00 19 00 4E
15:39:27.726 设备发送:03 03 04 05 00 01 94 D9
15:39:32.721 设备接收:03 03 02 00 00 C1 84
15:39:32.737 设备发送:04 03 04 84 00 04 05 45
15:39:37.757 设备接收:04 03 08 13 88 05 35 00 10 05 35 83 D9
15:39:37.787 设备发送:04 03 04 8D 00 05 14 87
15:39:42.766 设备接收:04 03 0A 09 1D 07 87 00 00 00 00 00 00 DB 22
15:39:42.784 设备发送:04 03 04 98 00 05 05 43
15:39:47.794 设备接收:04 03 0A 09 17 07 7B 00 00 00 00 00 00 99 8D
15:39:47.811 设备发送:04 03 04 A3 00 05 74 8E
15:39:52.824 设备接收:04 03 0A 09 20 07 8F 00 00 00 00 00 00 5E 73
15:39:52.841 设备发送:04 03 06 84 00 04 04 FD
15:39:57.827 设备接收:04 03 08 00 00 4C 1C 00 08 0B EF 9C AB
15:39:57.843 设备发送:04 03 04 04 00 01 C4 AE
15:40:02.857 设备接收:04 03 02 00 02 F5 85
15:40:02.873 设备发送:04 03 05 84 00 0F 45 7E
15:40:07.896 设备接收:04 03 1E 04 4A 00 05 00 00 04 3D 00 00 00 00 19 B9 03 37 02 1E 19 10 01 4F 00 D7 04 4B 00 00 00 00 FC 41
15:40:07.911 设备发送:04 03 05 93 00 0F F5 7A
15:40:12.898 设备接收:04 03 1E 1C F8 01 2E 00 E0 1C 37 01 2E 00 DA 1E 15 01 17 00 D6 04 50 00 04 00 00 04 4E 00 01 00 00 71 47
15:40:12.913 设备发送:04 03 05 A2 00 0F A4 B5
15:40:17.908 设备接收:04 03 1E 00 08 00 00 00 00 00 08 00 02 00 00 00 00 00 00 00 00 00 00 00 00 00 00 00 00 00 00 00 00 40 F1
15:40:17.941 设备发送:04 03 05 B1 00 03 55 75
15:40:22.939 设备接收:04 03 06 00 00 00 00 00 00 1E 25
15:40:22.955 设备发送:04 03 04 2B 00 01 F5 67
15:40:27.961 设备接收:04 03 02 02 EC 74 A9
15:40:27.976 设备发送:04 03 04 20 00 01 84 A5
15:40:32.973 设备接收:04 03 02 00 26 F5 9E
15:40:32.989 设备发送:04 03 04 05 00 01 95 6E
15:40:37.995 设备接收:04 03 02 00 00 74 44
15:40:38.007 设备发送:05 03 04 84 00 04 04 94
15:40:43.043 设备接收:05 03 08 13 85 09 32 FF F3 09 32 6B C9
15:40:43.059 设备发送:05 03 04 8D 00 05 15 56
15:40:48.038 设备接收:05 03 0A 09 25 0D 27 00 00 00 00 00 00 CA 17
15:40:48.053 设备发送:05 03 04 98 00 05 04 92
15:40:53.055 设备接收:05 03 0A 09 20 0D 06 00 00 00 00 00 00 C4 45
15:40:53.085 设备发送:05 03 04 A3 00 05 75 5F
15:40:58.077 设备接收:05 03 0A 09 2B 0D 11 00 00 00 00 00 00 D0 74
15:40:58.086 设备发送:05 03 06 84 00 04 05 2C
15:41:03.095 设备接收:05 03 08 00 00 8C 26 00 0E 04 C9 35 79
15:41:03.109 设备发送:05 03 04 04 00 01 C5 7F
15:41:08.134 设备接收:05 03 02 00 02 C8 45
15:41:08.150 设备发送:05 03 05 84 00 0F 44 AF
15:41:13.166 设备接收:05 03 1E 04 68 00 00 00 00 04 6A 00 00 00 00 04 5D 00 02 00 00 18 8C 02 E3 01 D0 18 D3 02 7A 01 93 1A 74
15:41:13.181 设备发送:05 03 05 93 00 0F F4 AB
15:41:18.175 设备接收:05 03 1E 18 0C 03 D5 02 5C 16 02 03 35 01 CF 1F F8 02 7B 02 08 04 67 00 07 00 00 04 61 00 00 00 00 88 DC
15:41:18.194 设备发送:05 03 05 A2 00 0F A5 64
15:41:23.186 设备接收:05 03 1E 00 00 00 00 00 00 00 00 00 00 00 00 00 00 00 00 00 00 00 00 00 00 00 00 00 00 00 00 00 00 69 7B
15:41:23.217 设备发送:05 03 05 B1 00 03 54 A4
15:41:28.221 设备接收:05 03 06 00 00 00 00 00 00 13 B5
15:41:28.242 设备发送:05 03 04 2B 00 01 F4 B6
15:41:33.229 设备接收:05 03 02 02 ED 88 A9
15:41:33.245 设备发送:05 03 04 20 00 01 85 74
15:41:38.243 设备接收:05 03 02 00 23 08 5D
15:41:38.290 设备发送:05 03 04 05 00 01 94 BF
15:41:43.269 设备接收:05 03 02 00 00 49 84
15:41:43.284 设备发送:06 03 04 84 00 04 04 A7
15:41:48.294 设备接收:06 03 08 13 89 05 A1 FF C7 05 A6 69 3D
15:41:48.309 设备发送:06 03 04 8D 00 05 15 65
15:41:53.321 设备接收:06 03 0A 09 39 07 F0 00 00 00 00 00 00 70 66
15:41:53.337 设备发送:06 03 04 98 00 05 04 A1
15:41:58.342 设备接收:06 03 0A 09 36 07 F4 00 00 00 00 00 00 74 56
15:41:58.413 设备发送:06 03 04 A3 00 05 75 6C
15:42:03.360 设备接收:06 03 0A 09 3C 07 E4 00 00 00 00 00 00 1B 37
15:42:03.379 设备发送:06 03 06 84 00 04 05 1F
15:42:08.383 设备接收:06 03 08 00 00 49 5B 00 07 3B E2 C6 8F
15:42:08.415 设备发送:06 03 04 04 00 01 C5 4C
15:42:13.392 设备接收:06 03 02 00 02 8C 45
15:42:13.423 设备发送:06 03 05 84 00 0F 44 9C
15:42:18.409 设备接收:06 03 1E 1C B7 02 CA 02 0D 1B 4C 01 D7 01 49 19 BE 03 A6 02 67 06 30 00 06 00 01 00 00 00 00 00 00 0F 1B
15:42:18.425 设备发送:06 03 05 93 00 0F F4 98
15:42:23.453 设备接收:06 03 1E 00 00 00 00 00 00 00 00 00 00 00 00 00 00 00 00 00 00 00 00 00 00 00 00 00 00 00 00 00 00 DD 7B
15:42:23.468 设备发送:06 03 05 A2 00 0F A5 57
15:42:28.453 设备接收:06 03 1E 00 00 00 00 00 00 00 00 00 00 00 00 00 00 00 00 00 00 00 00 00 00 00 00 00 00 00 00 00 00 DD 7B
15:42:28.469 设备发送:06 03 05 B1 00 03 54 97
15:42:33.486 设备接收:06 03 06 00 00 00 00 00 00 07 45
15:42:33.502 设备发送:06 03 04 2B 00 01 F4 85
15:42:38.527 设备接收:06 03 02 01 DD CC 4D
15:42:38.542 设备发送:06 03 04 20 00 01 85 47
15:42:43.544 设备接收:06 03 02 00 1A 8C 4F
15:42:43.558 设备发送:06 03 04 05 00 01 94 8C
15:42:48.554 设备接收:06 03 02 00 00 0D 84
15:42:48.568 设备发送:01 03 04 84 00 04 05 10
15:42:53.561 设备接收:01 03 08 13 85 10 1E FF DD 10 1E 87 72
15:42:53.598 设备发送:01 03 04 8D 00 05 14 D2
15:42:58.600 设备接收:01 03 0A 08 DE 17 97 00 00 00 00 00 00 D2 DA
15:42:58.615 设备发送:01 03 04 98 00 05 05 16
15:43:03.596 设备接收:01 03 0A 08 DE 17 8B 00 00 00 00 00 00 0F 1B
15:43:03.643 设备发送:01 03 04 A3 00 05 74 DB
15:43:08.641 设备接收:01 03 0A 08 F0 17 7B 00 00 00 00 00 00 2A B5
15:43:08.657 设备发送:01 03 06 84 00 04 04 A8
15:43:13.648 设备接收:01 03 08 00 00 DA D8 00 13 90 1C 3A F2
15:43:13.667 设备发送:01 03 04 04 00 01 C4 FB
15:43:18.676 设备接收:01 03 02 00 02 39 85
15:43:18.707 设备发送:01 03 05 84 00 0F 45 2B
15:43:23.700 设备接收:01 03 1E 1A FC 03 5C 02 52 1C 8A 02 83 01 D6 1C 8C 02 55 01 B4 1C D6 01 12 00 CA 1E BC 03 A2 02 DC A5 7C
15:43:23.732 设备发送:01 03 05 93 00 0F F5 2F
15:43:28.706 设备接收:01 03 1E 1E 70 01 E3 01 78 1E AB 01 D9 01 73 1E A5 01 D2 01 6D 1E 61 01 EA 01 7D 1E 23 01 88 01 2E D0 83
15:43:28.737 设备发送:01 03 05 A2 00 0F A4 E0
15:43:33.721 设备接收:01 03 1E 00 00 00 00 00 00 00 00 00 01 00 00 00 00 00 00 00 00 00 00 00 00 00 00 00 00 00 00 00 00 C8 6B
15:43:33.737 设备发送:01 03 05 B1 00 03 55 20
15:43:38.739 设备接收:01 03 06 00 00 00 00 00 00 21 75
15:43:38.755 设备发送:01 03 04 2B 00 01 F5 32
15:43:43.762 设备接收:01 03 02 02 E0 B8 AC
15:43:43.809 设备发送:01 03 04 20 00 01 84 F0
15:43:48.772 设备接收:01 03 02 00 3E 39 94
15:43:48.819 设备发送:01 03 04 05 00 01 95 3B
15:43:53.808 设备接收:01 03 02 00 00 B8 44
15:43:53.823 设备发送:02 03 04 84 00 04 05 23
15:43:58.841 设备接收:02 03 08 13 85 06 34 FF D7 06 34 3C BB
15:43:58.857 设备发送:02 03 04 8D 00 05 14 E1
15:44:03.854 设备接收:02 03 0A 08 FC 08 FA 00 00 00 00 00 00 AA 32
15:44:03.874 设备发送:02 03 04 98 00 05 05 25
15:44:08.865 设备接收:02 03 0A 08 FF 09 05 00 00 00 00 00 00 70 01
15:44:08.943 设备发送:02 03 04 A3 00 05 74 E8
15:44:13.900 设备接收:02 03 0A 08 F0 08 F6 00 00 00 00 00 00 33 32
15:44:13.916 设备发送:02 03 06 84 00 04 04 9B
15:44:18.918 设备接收:02 03 08 00 00 4A D1 00 07 39 38 CA A8
15:44:18.934 设备发送:02 03 04 04 00 01 C4 C8
15:44:23.933 设备接收:02 03 02 00 02 7D 85
15:44:23.949 设备发送:02 03 05 84 00 06 85 1E
15:44:28.961 设备接收:02 03 0C 1F 17 01 E1 01 7F 1E CC 01 D8 01 74 02 6A
15:44:28.977 设备发送:02 03 05 8A 00 06 E4 DD
15:44:33.965 设备接收:02 03 0C 1E DD 01 D1 01 6F 16 13 03 AF 02 15 83 93
15:44:33.981 设备发送:02 03 05 90 00 06 C5 1A
15:44:38.976 设备接收:02 03 0C 00 00 00 00 00 00 00 00 00 00 00 00 D0 71
15:44:38.995 设备发送:02 03 05 96 00 06 25 1B
15:44:44.015 设备接收:02 03 0C 00 00 00 00 00 00 00 00 00 00 00 00 D0 71
15:44:44.029 设备发送:02 03 05 9C 00 06 05 19
15:44:49.018 设备接收:02 03 0C 00 00 00 00 00 00 00 00 00 00 00 00 D0 71
15:44:49.049 设备发送:02 03 05 A2 00 06 64 D5
15:44:54.044 设备接收:02 03 0C 00 00 00 00 00 00 00 00 00 00 00 00 D0 71
15:44:54.061 设备发送:02 03 05 A8 00 06 44 D7
15:44:59.078 设备接收:02 03 0C 00 00 00 00 00 00 00 00 00 00 00 00 D0 71
15:44:59.094 设备发送:02 03 05 AE 00 06 A4 D6
15:45:04.084 设备接收:02 03 0C 00 00 00 00 00 00 00 00 00 00 00 00 D0 71
15:45:04.100 设备发送:02 03 04 2B 00 01 F5 01
15:45:09.091 设备接收:02 03 02 01 D5 3C 4B
15:45:09.107 设备发送:02 03 04 20 00 01 84 C3
15:45:14.142 设备接收:02 03 02 00 21 3C 5C
15:45:14.160 设备发送:02 03 04 05 00 01 95 08
15:45:19.158 设备接收:02 03 02 00 00 FC 44
15:45:19.174 设备发送:03 03 04 84 00 04 04 F2
15:45:24.167 设备接收:03 03 08 13 85 02 C6 00 0A 02 C8 A2 B9
15:45:24.183 设备发送:03 03 04 8D 00 05 15 30
15:45:29.177 设备接收:03 03 0A 09 02 03 FE 00 00 00 00 00 00 B5 61
15:45:29.194 设备发送:03 03 04 98 00 05 04 F4
15:45:34.211 设备接收:03 03 0A 09 05 03 FF 00 00 00 00 00 00 83 91
15:45:34.227 设备发送:03 03 04 A3 00 05 75 39
15:45:39.229 设备接收:03 03 0A 09 10 04 05 00 00 00 00 00 00 6A E8
15:45:39.244 设备发送:03 03 06 84 00 04 05 4A
15:45:44.237 设备接收:03 03 08 00 00 22 17 00 03 56 8B 63 29
15:45:44.284 设备发送:03 03 04 04 00 01 C5 19
15:45:49.277 设备接收:03 03 02 00 02 40 45
15:45:49.307 设备发送:03 03 05 84 00 06 84 CF
15:45:54.297 设备接收:03 03 0C 1E 93 01 D4 01 6E 1E BE 01 C7 01 66 61 CB
15:45:54.313 设备发送:03 03 05 8A 00 06 E5 0C
15:45:59.307 设备接收:03 03 0C 00 0B 00 01 00 00 00 00 00 00 00 00 39 C5
15:45:59.322 设备发送:03 03 05 90 00 06 C4 CB
15:46:04.329 设备接收:03 03 0C 00 00 00 00 00 00 00 00 00 00 00 00 11 71
15:46:04.343 设备发送:03 03 05 96 00 06 24 CA
15:46:09.341 设备接收:03 03 0C 00 00 00 00 00 00 00 00 00 00 00 00 11 71
15:46:09.419 设备发送:03 03 05 9C 00 06 04 C8
15:46:14.367 设备接收:03 03 0C 00 00 00 00 00 00 00 00 00 00 00 00 11 71
15:46:14.383 设备发送:03 03 05 A2 00 06 65 04
15:46:19.397 设备接收:03 03 0C 00 00 00 00 00 00 00 00 00 00 00 00 11 71
15:46:19.412 设备发送:03 03 05 A8 00 06 45 06
15:46:24.419 设备接收:03 03 0C 00 00 00 00 00 00 00 00 00 00 00 00 11 71
15:46:24.435 设备发送:03 03 05 AE 00 06 A5 07
15:46:29.424 设备接收:03 03 0C 00 00 00 00 00 00 00 00 00 00 00 00 11 71
15:46:29.435 设备发送:03 03 04 2B 00 01 F4 D0

