12:49:07.201 设备接收:01 03 08 13 88 0F 18 FF 96 0F 1A A8 38
12:49:07.223 设备发送:01 03 04 8D 00 21 14 C9
12:49:10.216 设备接收:01 03 42 09 35 15 69 00 00 00 00 00 00 00 00 00 00 00 00 00 00 00 00 00 00 09 30 15 68 00 00 00 00 00 00 00 00 00 00 00 00 00 00 00 00 00 00 09 3C 15 6D 00 00 00 00 00 00 00 00 00 00 00 00 00 00 00 00 00 00 96 82
12:49:10.258 设备发送:01 03 06 84 00 04 04 A8
12:49:13.258 设备接收:01 03 08 00 00 2B FE 00 07 93 6B 26 C6
12:49:13.278 设备发送:01 03 04 04 00 01 C4 FB
12:49:16.268 设备接收:01 03 02 00 02 39 85
12:49:16.288 设备发送:02 03 04 84 00 04 05 23
12:49:19.286 设备接收:02 03 08 13 87 19 A2 FF BF 19 A2 5C 8B
12:49:19.329 设备发送:02 03 04 8D 00 21 14 FA
12:49:22.327 设备接收:02 03 42 09 41 24 1B 00 00 00 00 00 00 00 00 00 00 00 00 00 00 00 00 00 00 09 39 23 FF 00 00 00 00 00 00 00 00 00 00 00 00 00 00 00 00 00 00 09 4D 23 F8 00 00 00 00 00 00 00 00 00 00 00 00 00 00 00 00 00 00 5E F4
12:49:22.350 设备发送:02 03 06 84 00 04 04 9B
12:49:25.342 设备接收:02 03 08 00 00 54 22 00 0D 2B 36 60 65
12:49:25.362 设备发送:02 03 04 04 00 01 C4 C8
12:49:28.347 设备接收:02 03 02 00 02 7D 85
12:49:28.360 设备发送:03 03 04 84 00 04 04 F2
12:49:31.393 设备接收:03 03 08 13 84 0D 05 FF ED 0D 0E F3 16
12:49:31.402 设备发送:03 03 04 8D 00 21 15 2B
12:49:34.402 设备接收:03 03 42 09 5B 12 13 00 00 00 00 00 00 00 00 00 00 00 00 00 00 00 00 00 00 09 5E 12 21 00 00 00 00 00 00 00 00 00 00 00 00 00 00 00 00 00 00 09 5D 12 27 00 00 00 00 00 00 00 00 00 00 00 00 00 00 00 00 00 00 6E CB
12:49:34.423 设备发送:03 03 06 84 00 04 05 4A
12:49:37.423 设备接收:03 03 08 00 00 2C 83 00 06 C9 C2 EB DD
12:49:37.443 设备发送:03 03 04 04 00 01 C5 19
12:49:40.450 设备接收:03 03 02 00 02 40 45
12:49:40.471 设备发送:01 03 04 84 00 04 05 10
12:49:43.461 设备接收:01 03 08 13 86 0F 25 FF D0 0F 26 CB F9
12:49:43.470 设备发送:01 03 04 8D 00 21 14 C9
12:49:46.468 设备接收:01 03 42 09 34 15 7E 00 00 00 00 00 00 00 00 00 00 00 00 00 00 00 00 00 00 09 2E 15 70 00 00 00 00 00 00 00 00 00 00 00 00 00 00 00 00 00 00 09 39 15 80 00 00 00 00 00 00 00 00 00 00 00 00 00 00 00 00 00 00 55 57
12:49:46.489 设备发送:01 03 06 84 00 04 04 A8
12:49:49.497 设备接收:01 03 08 00 00 2C 25 00 07 93 6F 42 A1
12:49:49.510 设备发送:01 03 04 04 00 01 C4 FB
12:49:52.520 设备接收:01 03 02 00 02 39 85
12:49:52.529 设备发送:02 03 04 84 00 04 05 23
12:49:55.526 设备接收:02 03 08 13 88 19 A6 FF 5A 19 A8 C3 BB
12:49:55.568 设备发送:02 03 04 8D 00 21 14 FA
12:49:58.563 设备接收:02 03 42 09 42 24 1B 00 00 00 00 00 00 00 00 00 00 00 00 00 00 00 00 00 00 09 3A 23 FF 00 00 00 00 00 00 00 00 00 00 00 00 00 00 00 00 00 00 09 4F 23 FA 00 00 00 00 00 00 00 00 00 00 00 00 00 00 00 00 00 00 12 9C
12:49:58.584 设备发送:02 03 06 84 00 04 04 9B
12:50:01.594 设备接收:02 03 08 00 00 54 64 00 0D 2B 3D A8 6D
12:50:01.615 设备发送:02 03 04 04 00 01 C4 C8
12:50:04.592 设备接收:02 03 02 00 02 7D 85
12:50:04.645 设备发送:03 03 04 84 00 04 04 F2
12:50:07.627 设备接收:03 03 08 13 8A 0C FC FF EB 0D 06 60 D4
12:50:07.646 设备发送:03 03 04 8D 00 21 15 2B
12:50:10.654 设备接收:03 03 42 09 64 12 07 00 00 00 00 00 00 00 00 00 00 00 00 00 00 00 00 00 00 09 64 12 11 00 00 00 00 00 00 00 00 00 00 00 00 00 00 00 00 00 00 09 63 12 18 00 00 00 00 00 00 00 00 00 00 00 00 00 00 00 00 00 00 E4 EF
12:50:10.667 设备发送:03 03 06 84 00 04 05 4A
12:50:13.664 设备接收:03 03 08 00 00 2C A5 00 06 C9 C6 E3 D9
12:50:13.685 设备发送:03 03 04 04 00 01 C5 19
12:50:14.26600

