
12:00:50.041 设备接收:03 03 0A 09 2F 07 8B 00 00 00 00 00 00 51 04
12:00:50.049 设备发送:03 03 04 A3 00 05 75 39
12:00:55.047 设备接收:03 03 0A 09 40 07 8E 00 00 00 00 00 00 ED F6
12:00:55.067 设备发送:03 03 06 84 00 04 05 4A
12:01:00.081 设备接收:03 03 08 00 00 0D 9C 00 03 61 14 96 F1
12:01:00.096 设备发送:03 03 04 04 00 01 C5 19
12:01:02.774 设备发送:01 10 11 04 00 01 02 00 01 67 15
12:01:03.007 设备发送:01 10 11 04 00 01 02 00 01 67 15
12:01:03.226 设备发送:01 10 11 04 00 01 02 00 01 67 15
12:01:05.098 设备接收:03 03 02 00 02 40 45 01 10 11 04 00 01 45 34 01 10 11 04 00 01 45 34 01 10 11 04 00 01 45 34
12:01:05.114 设备发送:03 03 05 84 00 06 84 CF
12:01:10.126 设备接收:03 03 0C 1D 10 03 B0 02 BE 1D 0B 03 A7 02 B7 25 7A
12:01:10.142 设备发送:03 03 05 8A 00 06 E5 0C
12:01:15.150 设备接收:03 03 0C 00 0B 00 01 00 00 00 00 00 00 00 00 39 C5
12:01:15.165 设备发送:03 03 05 90 00 06 C4 CB
12:01:20.171 设备接收:03 03 0C 00 00 00 00 00 00 00 00 00 00 00 00 11 71
12:01:20.187 设备发送:03 03 05 96 00 06 24 CA
12:01:25.182 设备接收:03 03 0C 00 00 00 00 00 00 00 00 00 00 00 00 11 71
12:01:25.197 设备发送:03 03 05 9C 00 06 04 C8
12:01:30.201 设备接收:03 03 0C 00 00 00 00 00 00 00 00 00 00 00 00 11 71
12:01:30.216 设备发送:03 03 05 A2 00 06 65 04
12:01:35.204 设备接收:03 03 0C 00 00 00 00 00 00 00 00 00 00 00 00 11 71
12:01:35.235 设备发送:03 03 05 A8 00 06 45 06
12:01:40.241 设备接收:03 03 0C 00 00 00 00 00 00 00 00 00 00 00 00 11 71
12:01:40.257 设备发送:03 03 05 AE 00 06 A5 07
12:01:45.262 设备接收:03 03 0C 00 00 00 00 00 00 00 00 00 00 00 00 11 71
12:01:45.278 设备发送:03 03 04 2B 00 01 F4 D0
12:01:50.266 设备接收:03 03 02 02 65 00 CF
12:01:50.313 设备发送:03 03 04 20 00 01 85 12
12:01:55.291 设备接收:03 03 02 00 19 00 4E
12:01:55.307 设备发送:03 03 04 05 00 01 94 D9
12:02:00.319 设备接收:03 03 02 00 00 C1 84
12:02:00.334 设备发送:04 03 04 84 00 04 05 45
12:02:05.326 设备接收:04 03 08 13 8B 0D 96 FF D6 0D 96 E2 18
12:02:05.341 设备发送:04 03 04 8D 00 05 14 87
12:02:10.367 设备接收:04 03 0A 09 49 13 33 00 00 00 00 00 00 E1 15
12:02:10.382 设备发送:04 03 04 98 00 05 05 43
12:02:15.397 设备接收:04 03 0A 09 3E 13 2D 00 00 00 00 00 00 5C E6
12:02:15.413 设备发送:04 03 04 A3 00 05 74 8E
12:02:20.400 设备接收:04 03 0A 09 49 13 38 00 00 00 00 00 00 5B D5
12:02:20.416 设备发送:04 03 06 84 00 04 04 FD
12:02:25.419 设备接收:04 03 08 00 00 1B 8D 00 08 23 2D F3 00
12:02:25.435 设备发送:04 03 04 04 00 01 C4 AE
12:02:30.441 设备接收:04 03 02 00 02 F5 85
12:02:30.457 设备发送:04 03 05 84 00 0F 45 7E
12:02:35.469 设备接收:04 03 1E 03 F1 00 03 00 00 03 E3 00 00 00 00 18 76 07 56 04 98 16 E9 03 B3 02 2B 03 F2 00 00 00 00 FD CE
12:02:35.484 设备发送:04 03 05 93 00 0F F5 7A
12:02:40.503 设备接收:04 03 1E 19 A5 03 A2 02 62 19 F4 03 A3 02 6B 1B 8F 03 AA 02 96 03 F4 00 01 00 00 03 F4 00 00 00 00 52 1A
12:02:40.519 设备发送:04 03 05 A2 00 0F A4 B5
12:02:45.508 设备接收:04 03 1E 00 09 00 00 00 00 00 08 00 02 00 00 00 00 00 00 00 00 00 00 00 00 00 00 00 00 00 00 00 00 80 F0
12:02:45.524 设备发送:04 03 05 B1 00 03 55 75
12:02:50.536 设备接收:04 03 06 00 00 00 00 00 00 1E 25
12:02:50.552 设备发送:04 03 04 2B 00 01 F5 67
12:02:55.563 设备接收:04 03 02 02 E0 74 AC
12:02:55.579 设备发送:04 03 04 20 00 01 84 A5
12:03:00.568 设备接收:04 03 02 00 2B 34 5B
12:03:00.600 设备发送:04 03 04 05 00 01 95 6E
12:03:05.603 设备接收:04 03 02 00 00 74 44
12:03:05.680 设备发送:05 03 04 84 00 04 04 94
12:03:10.612 设备接收:05 03 08 13 8B 17 4D FF C3 17 4E 9A 33
12:03:10.628 设备发送:05 03 04 8D 00 05 15 56
12:03:15.627 设备接收:05 03 0A 09 52 20 9A 00 00 00 00 00 00 27 6F
12:03:15.643 设备发送:05 03 04 98 00 05 04 92
12:03:20.657 设备接收:05 03 0A 09 49 20 91 00 00 00 00 00 00 23 5F
12:03:20.673 设备发送:05 03 04 A3 00 05 75 5F
12:03:25.665 设备接收:05 03 0A 09 56 20 84 00 00 00 00 00 00 EB AE
12:03:25.696 设备发送:05 03 06 84 00 04 05 2C
12:03:30.695 设备接收:05 03 08 00 00 37 D6 00 0E 2F 89 71 27
12:03:30.711 设备发送:05 03 04 04 00 01 C5 7F
12:03:35.720 设备接收:05 03 02 00 02 C8 45
12:03:35.736 设备发送:05 03 05 84 00 0F 44 AF
12:03:40.746 设备接收:05 03 1E 04 3C 00 00 00 00 04 3E 00 00 00 00 04 30 00 00 00 00 1E 1A 07 25 05 81 17 43 07 56 04 5E ED 7C
12:03:40.762 设备发送:05 03 05 93 00 0F F4 AB
12:03:45.781 设备接收:05 03 1E 17 47 07 72 04 6F 16 95 07 70 04 4D 1D 5E 07 5D 05 89 04 3B 00 03 00 00 04 34 00 02 00 00 26 4D
12:03:45.796 设备发送:05 03 05 A2 00 0F A5 64
12:03:50.775 设备接收:05 03 1E 00 00 00 00 00 00 00 00 00 00 00 00 00 00 00 00 00 00 00 00 00 00 00 00 00 00 00 00 00 00 69 7B
12:03:50.790 设备发送:05 03 05 B1 00 03 54 A4
12:03:55.820 设备接收:05 03 06 00 00 00 00 00 00 13 B5
12:03:55.836 设备发送:05 03 04 2B 00 01 F4 B6
12:04:00.820 设备接收:05 03 02 02 C6 C8 B6
12:04:00.851 设备发送:05 03 04 20 00 01 85 74
12:04:05.831 设备接收:05 03 02 00 34 48 53
12:04:05.862 设备发送:05 03 04 05 00 01 94 BF
12:04:10.877 设备接收:05 03 02 00 00 49 84
12:04:10.893 设备发送:06 03 04 84 00 04 04 A7
12:04:15.881 设备接收:06 03 08 13 89 0B E7 FF CC 0B F0 14 40
12:04:15.912 设备发送:06 03 04 8D 00 05 15 65
12:04:19.14000

