
10:35:40.359 设备接收:03 03 02 02 65 00 CF
10:35:40.370 设备发送:03 03 04 20 00 01 85 12
10:35:45.376 设备接收:03 03 02 00 19 00 4E
10:35:45.391 设备发送:03 03 04 05 00 01 94 D9
10:35:50.416 设备接收:03 03 02 00 00 C1 84
10:35:50.432 设备发送:04 03 04 84 00 04 05 45
10:35:55.434 设备接收:04 03 08 13 8B 0A F3 FF E1 0A F3 DC 72
10:35:55.450 设备发送:04 03 04 8D 00 05 14 87
10:36:00.439 设备接收:04 03 0A 09 1D 0F B5 00 00 00 00 00 00 C9 47
10:36:00.471 设备发送:04 03 04 98 00 05 05 43
10:36:05.484 设备接收:04 03 0A 09 17 0F BD 00 00 00 00 00 00 3E 27
10:36:05.500 设备发送:04 03 04 A3 00 05 74 8E
10:36:10.474 设备接收:04 03 0A 09 24 0F CA 00 00 00 00 00 00 79 D1
10:36:10.505 设备发送:04 03 06 84 00 04 04 FD
10:36:15.515 设备接收:04 03 08 00 00 09 8F 00 08 21 60 48 E7
10:36:15.531 设备发送:04 03 04 04 00 01 C4 AE
10:36:20.539 设备接收:04 03 02 00 02 F5 85
10:36:20.555 设备发送:04 03 05 84 00 0F 45 7E
10:36:25.545 设备接收:04 03 1E 03 FF 00 04 00 00 03 F1 00 00 00 00 18 9E 05 DD 03 B2 16 E9 02 ED 01 B7 03 FE 00 00 00 00 DE D9
10:36:25.576 设备发送:04 03 05 93 00 0F F5 7A
10:36:30.584 设备接收:04 03 1E 1A 94 02 DF 01 F4 1A 6B 02 F4 01 FF 1B DE 02 F7 02 1E 04 01 00 02 00 00 03 FE 00 00 00 00 C4 77
10:36:30.600 设备发送:04 03 05 A2 00 0F A4 B5
10:36:35.616 设备接收:04 03 1E 00 09 00 00 00 00 00 08 00 02 00 00 00 00 00 00 00 00 00 00 00 00 00 00 00 00 00 00 00 00 80 F0
10:36:35.632 设备发送:04 03 05 B1 00 03 55 75
10:36:40.624 设备接收:04 03 06 00 00 00 00 00 00 1E 25
10:36:40.655 设备发送:04 03 04 2B 00 01 F5 67
10:36:45.655 设备接收:04 03 02 02 E0 74 AC
10:36:45.670 设备发送:04 03 04 20 00 01 84 A5
10:36:50.654 设备接收:04 03 02 00 24 74 5F
10:36:50.680 设备发送:04 03 04 05 00 01 95 6E
10:36:55.698 设备接收:04 03 02 00 00 74 44
10:36:55.713 设备发送:05 03 04 84 00 04 04 94
10:37:00.715 设备接收:05 03 08 13 85 13 24 FF 7E 13 25 FB 75
10:37:00.746 设备发送:05 03 04 8D 00 05 15 56
10:37:05.725 设备接收:05 03 0A 09 1F 1B 59 00 00 00 00 00 00 FF 97
10:37:05.756 设备发送:05 03 04 98 00 05 04 92
10:37:10.734 设备接收:05 03 0A 09 1C 1B 50 00 00 00 00 00 00 72 67
10:37:10.764 设备发送:05 03 04 A3 00 05 75 5F
10:37:15.789 设备接收:05 03 0A 09 2C 1B 6C 00 00 00 00 00 00 DA 65
10:37:15.805 设备发送:05 03 06 84 00 04 05 2C
10:37:20.780 设备接收:05 03 08 00 00 18 F1 00 0E 2C 72 03 CC
10:37:20.810 设备发送:05 03 04 04 00 01 C5 7F
10:37:25.823 设备接收:05 03 02 00 02 C8 45
10:37:25.838 设备发送:05 03 05 84 00 0F 44 AF
10:37:30.852 设备接收:05 03 1E 04 4C 00 01 00 00 04 4D 00 00 00 00 04 40 00 01 00 00 1E 45 05 E0 04 8E 17 92 06 00 03 9E 1E 6A
10:37:30.867 设备发送:05 03 05 93 00 0F F4 AB
10:37:35.835 设备接收:05 03 1E 17 49 06 26 03 AA 16 BC 06 21 03 91 1D AE 06 09 04 96 04 4A 00 05 00 00 04 47 00 03 00 00 95 4B
10:37:35.898 设备发送:05 03 05 A2 00 0F A5 64
10:37:40.885 设备接收:05 03 1E 00 00 00 00 00 00 00 00 00 00 00 00 00 00 00 00 00 00 00 00 00 00 00 00 00 00 00 00 00 00 69 7B
10:37:40.960 设备发送:05 03 05 B1 00 03 54 A4
10:37:45.901 设备接收:05 03 06 00 00 00 00 00 00 13 B5
10:37:45.917 设备发送:05 03 04 2B 00 01 F4 B6
10:37:50.933 设备接收:05 03 02 02 C6 C8 B6
10:37:50.949 设备发送:05 03 04 20 00 01 85 74
10:37:55.931 设备接收:05 03 02 00 2A C8 5B
10:37:55.979 设备发送:05 03 04 05 00 01 94 BF
10:38:00.974 设备接收:05 03 02 00 00 49 84
10:38:00.990 设备发送:06 03 04 84 00 04 04 A7
10:38:05.986 设备接收:06 03 08 13 86 09 CE FF E5 09 D6 E6 16
10:38:06.002 设备发送:06 03 04 8D 00 05 15 65
10:38:11.007 设备接收:06 03 0A 09 40 0D D1 00 00 00 00 00 00 CE 89
10:38:11.023 设备发送:06 03 04 98 00 05 04 A1
10:38:16.023 设备接收:06 03 0A 09 3E 0D D8 00 00 00 00 00 00 7E 2B
10:38:16.055 设备发送:06 03 04 A3 00 05 75 6C
10:38:21.015 设备接收:06 03 0A 09 3F 0D D1 00 00 00 00 00 00 EA BB
10:38:21.061 设备发送:06 03 06 84 00 04 05 1F
10:38:26.077 设备接收:06 03 08 00 00 0D D6 00 07 50 DA CB 36
10:38:26.093 设备发送:06 03 04 04 00 01 C5 4C
10:38:31.086 设备接收:06 03 02 00 02 8C 45
10:38:31.101 设备发送:06 03 05 84 00 0F 44 9C
10:38:36.092 设备接收:06 03 1E 1A 53 06 2E 04 2A 1A 48 03 11 02 10 18 B1 06 0C 03 D2 05 57 00 03 00 00 00 00 00 00 00 00 D5 84
10:38:36.107 设备发送:06 03 05 93 00 0F F4 98
10:38:41.109 设备接收:06 03 1E 00 00 00 00 00 00 00 00 00 00 00 00 00 00 00 00 00 00 00 00 00 00 00 00 00 00 00 00 00 00 DD 7B
10:38:41.141 设备发送:06 03 05 A2 00 0F A5 57
10:38:46.134 设备接收:06 03 1E 00 00 00 00 00 00 00 00 00 00 00 00 00 00 00 00 00 00 00 00 00 00 00 00 00 00 00 00 00 00 DD 7B
10:38:46.165 设备发送:06 03 05 B1 00 03 54 97
10:38:51.150 设备接收:06 03 06 00 00 00 00 00 00 07 45
10:38:51.181 设备发送:06 03 04 2B 00 01 F4 85
10:38:56.193 设备接收:06 03 02 01 D5 CD 8B
10:38:56.209 设备发送:06 03 04 20 00 01 85 47
10:39:01.201 设备接收:06 03 02 00 20 0C 5C
10:39:01.217 设备发送:06 03 04 05 00 01 94 8C
10:39:06.233 设备接收:06 03 02 00 00 0D 84
10:39:06.249 设备发送:01 03 04 84 00 04 05 10
10:39:11.245 设备接收:01 03 08 13 85 00 00 00 00 00 00 00 06
10:39:11.261 设备发送:01 03 04 8D 00 05 14 D2
10:39:16.262 设备接收:01 03 0A 08 FC 00 0D 00 00 00 00 00 00 28 98
10:39:16.279 设备发送:01 03 04 98 00 05 05 16
10:39:21.253 设备接收:01 03 0A 08 FE 00 22 00 00 00 00 00 00 EF 3A
10:39:21.316 设备发送:01 03 04 A3 00 05 74 DB
10:39:26.294 设备接收:01 03 0A 09 06 00 1B 00 00 00 00 00 00 74 38
10:39:26.310 设备发送:01 03 06 84 00 04 04 A8
10:39:31.328 设备接收:01 03 08 00 00 27 96 00 13 CE 53 3E 85
10:39:31.343 设备发送:01 03 04 04 00 01 C4 FB
10:39:36.333 设备接收:01 03 02 00 00 B8 44
10:39:36.349 设备发送:01 03 05 84 00 0F 45 2B
10:39:41.363 设备接收:01 03 1E 1E 7C 00 00 00 00 1E 8D 00 25 00 1D 1E 79 00 24 00 1C 1E 77 00 27 00 1E 22 4D 00 00 00 00 2B 70
10:39:41.381 设备发送:01 03 05 93 00 0F F5 2F
10:39:46.364 设备接收:01 03 1E 22 4F 00 00 00 00 22 54 00 25 00 21 22 47 00 11 00 0F 22 45 00 23 00 1F 22 35 00 13 00 10 44 3E
10:39:46.395 设备发送:01 03 05 A2 00 0F A4 E0
10:39:51.378 设备接收:01 03 1E 00 00 00 00 00 00 00 00 00 04 00 00 00 00 00 00 00 00 00 00 00 00 00 00 00 00 00 00 00 00 9D 3E
10:39:51.456 设备发送:01 03 05 B1 00 03 55 20
10:39:56.428 设备接收:01 03 06 00 00 00 00 00 00 21 75
10:39:56.444 设备发送:01 03 04 2B 00 01 F5 32
10:40:01.430 设备接收:01 03 02 02 BB F9 57
10:40:01.446 设备发送:01 03 04 20 00 01 84 F0
10:40:06.454 设备接收:01 03 02 00 28 B8 5A
10:40:06.469 设备发送:01 03 04 05 00 01 95 3B
10:40:11.470 设备接收:01 03 02 00 00 B8 44
10:40:11.490 设备发送:02 03 04 84 00 04 05 23
10:40:16.504 设备接收:02 03 08 13 8B 0A 0A FF BE 0A 0C 2E BC
10:40:16.520 设备发送:02 03 04 8D 00 05 14 E1
10:40:21.538 设备接收:02 03 0A 09 25 0E 4A 00 00 00 00 00 00 3D 83
10:40:21.553 设备发送:02 03 04 98 00 05 05 25
10:40:26.534 设备接收:02 03 0A 09 28 0E 5C 00 00 00 00 00 00 12 D2
10:40:26.550 设备发送:02 03 04 A3 00 05 74 E8
10:40:31.535 设备接收:02 03 0A 09 1A 0E 52 00 00 00 00 00 00 B0 73
10:40:31.566 设备发送:02 03 06 84 00 04 04 9B
10:40:36.590 设备接收:02 03 08 00 00 0E 8F 00 07 4E 8D 8A 66
10:40:36.606 设备发送:02 03 04 04 00 01 C4 C8
10:40:41.589 设备接收:02 03 02 00 02 7D 85
10:40:41.604 设备发送:02 03 05 84 00 06 85 1E
10:40:46.614 设备接收:02 03 0C 1D AF 03 1D 02 5D 1D 98 03 0D 02 50 14 82
10:40:46.630 设备发送:02 03 05 8A 00 06 E4 DD
10:40:51.639 设备接收:02 03 0C 1D 5F 03 20 02 59 15 5F 06 33 03 64 8B 0E
10:40:51.655 设备发送:02 03 05 90 00 06 C5 1A
10:40:56.653 设备接收:02 03 0C 00 00 00 00 00 00 00 00 00 00 00 00 D0 71
10:40:56.668 设备发送:02 03 05 96 00 06 25 1B
10:41:01.670 设备接收:02 03 0C 00 00 00 00 00 00 00 00 00 00 00 00 D0 71
10:41:01.686 设备发送:02 03 05 9C 00 06 05 19
10:41:06.706 设备接收:02 03 0C 00 00 00 00 00 00 00 00 00 00 00 00 D0 71
10:41:06.722 设备发送:02 03 05 A2 00 06 64 D5
10:41:11.713 设备接收:02 03 0C 00 00 00 00 00 00 00 00 00 00 00 00 D0 71
10:41:11.729 设备发送:02 03 05 A8 00 06 44 D7
10:41:16.733 设备接收:02 03 0C 00 00 00 00 00 00 00 00 00 00 00 00 D0 71
10:41:16.765 设备发送:02 03 05 AE 00 06 A4 D6
10:41:21.745 设备接收:02 03 0C 00 00 00 00 00 00 00 00 00 00 00 00 D0 71
10:41:21.761 设备发送:02 03 04 2B 00 01 F5 01
10:41:26.761 设备接收:02 03 02 01 CB BC 43
10:41:26.807 设备发送:02 03 04 20 00 01 84 C3
10:41:31.774 设备接收:02 03 02 00 26 7D 9E
10:41:31.837 设备发送:02 03 04 05 00 01 95 08
10:41:36.831 设备接收:02 03 02 00 00 FC 44
10:41:36.846 设备发送:03 03 04 84 00 04 04 F2
10:41:41.821 设备接收:03 03 08 13 85 04 87 00 01 04 89 2C 82
10:41:41.852 设备发送:03 03 04 8D 00 05 15 30
10:41:46.859 设备接收:03 03 0A 09 2D 06 65 00 00 00 00 00 00 87 A6
10:41:46.890 设备发送:03 03 04 98 00 05 04 F4
10:41:51.872 设备接收:03 03 0A 09 30 06 6C 00 00 00 00 00 00 8B F6
10:41:51.888 设备发送:03 03 04 A3 00 05 75 39
10:41:56.900 设备接收:03 03 0A 09 3E 06 6D 00 00 00 00 00 00 D7 56
10:41:56.915 设备发送:03 03 06 84 00 04 05 4A
10:42:01.919 设备接收:03 03 08 00 00 07 0A 00 03 60 6C DF F4
10:42:01.935 设备发送:03 03 04 04 00 01 C5 19
10:42:06.945 设备接收:03 03 02 00 02 40 45
10:42:06.961 设备发送:03 03 05 84 00 06 84 CF
10:42:11.954 设备接收:03 03 0C 1D D8 03 0F 02 56 1D 0B 03 1C 02 4F 9E 87
10:42:11.970 设备发送:03 03 05 8A 00 06 E5 0C
10:42:16.976 设备接收:03 03 0C 00 0B 00 01 00 00 00 00 00 00 00 00 39 C5
10:42:16.991 设备发送:03 03 05 90 00 06 C4 CB
10:42:21.994 设备接收:03 03 0C 00 00 00 00 00 00 00 00 00 00 00 00 11 71
10:42:22.010 设备发送:03 03 05 96 00 06 24 CA
10:42:27.030 设备接收:03 03 0C 00 00 00 00 00 00 00 00 00 00 00 00 11 71
10:42:27.046 设备发送:03 03 05 9C 00 06 04 C8
10:42:32.051 设备接收:03 03 0C 00 00 00 00 00 00 00 00 00 00 00 00 11 71
10:42:32.066 设备发送:03 03 05 A2 00 06 65 04
10:42:37.074 设备接收:03 03 0C 00 00 00 00 00 00 00 00 00 00 00 00 11 71
10:42:37.090 设备发送:03 03 05 A8 00 06 45 06
10:42:42.067 设备接收:03 03 0C 00 00 00 00 00 00 00 00 00 00 00 00 11 71
10:42:42.114 设备发送:03 03 05 AE 00 06 A5 07
10:42:47.093 设备接收:03 03 0C 00 00 00 00 00 00 00 00 00 00 00 00 11 71
10:42:47.108 设备发送:03 03 04 2B 00 01 F4 D0
10:42:52.113 设备接收:03 03 02 02 65 00 CF
10:42:52.128 设备发送:03 03 04 20 00 01 85 12
10:42:57.134 设备接收:03 03 02 00 19 00 4E
10:42:57.150 设备发送:03 03 04 05 00 01 94 D9
10:43:02.153 设备接收:03 03 02 00 00 C1 84
10:43:02.184 设备发送:04 03 04 84 00 04 05 45
10:43:07.182 设备接收:04 03 08 13 89 0B 5C FF DC 0B 5C FA 5B
10:43:07.197 设备发送:04 03 04 8D 00 05 14 87
10:43:12.191 设备接收:04 03 0A 09 17 10 4C 00 00 00 00 00 00 9F A4
10:43:12.207 设备发送:04 03 04 98 00 05 05 43
10:43:17.236 设备接收:04 03 0A 09 17 10 45 00 00 00 00 00 00 06 A4
10:43:17.252 设备发送:04 03 04 A3 00 05 74 8E
10:43:22.248 设备接收:04 03 0A 09 24 10 4D 00 00 00 00 00 00 CF 95
10:43:22.264 设备发送:04 03 06 84 00 04 04 FD
10:43:27.260 设备接收:04 03 08 00 00 0A E9 00 08 21 83 01 55
10:43:27.276 设备发送:04 03 04 04 00 01 C4 AE
10:43:32.264 设备接收:04 03 02 00 02 F5 85
10:43:32.296 设备发送:04 03 05 84 00 0F 45 7E
10:43:37.306 设备接收:04 03 1E 04 01 00 03 00 00 03 F3 00 00 00 00 18 C8 06 08 03 D4 17 B1 02 F1 01 C9 04 01 00 00 00 00 FB 1C
10:43:37.322 设备发送:04 03 05 93 00 0F F5 7A
10:43:42.311 设备接收:04 03 1E 1A 47 02 FB 02 01 1A 1D 03 0E 02 0A 1B B9 03 0E 02 2B 04 03 00 02 00 00 04 00 00 00 00 00 28 3D
10:43:42.327 设备发送:04 03 05 A2 00 0F A4 B5
10:43:47.344 设备接收:04 03 1E 00 08 00 00 00 00 00 08 00 02 00 00 00 00 00 00 00 00 00 00 00 00 00 00 00 00 00 00 00 00 40 F1
10:43:47.359 设备发送:04 03 05 B1 00 03 55 75
10:43:52.354 设备接收:04 03 06 00 00 00 00 00 00 1E 25
10:43:52.370 设备发送:04 03 04 2B 00 01 F5 67
10:43:57.394 设备接收:04 03 02 02 E0 74 AC
10:43:57.409 设备发送:04 03 04 20 00 01 84 A5
10:44:02.393 设备接收:04 03 02 00 28 74 5A
10:44:02.409 设备发送:04 03 04 05 00 01 95 6E
10:44:07.406 设备接收:04 03 02 00 00 74 44
10:44:07.422 设备发送:05 03 04 84 00 04 04 94
10:44:12.432 设备接收:05 03 08 13 8C 13 79 00 15 13 79 CE 49
10:44:12.448 设备发送:05 03 04 8D 00 05 15 56
10:44:17.457 设备接收:05 03 0A 09 24 1B DC 00 00 00 00 00 00 0C 6E
10:44:17.488 设备发送:05 03 04 98 00 05 04 92
10:44:22.487 设备接收:05 03 0A 09 19 1B D8 00 00 00 00 00 00 45 3F
10:44:22.502 设备发送:05 03 04 A3 00 05 75 5F
10:44:27.479 设备接收:05 03 0A 09 2E 1B E6 00 00 00 00 00 00 E8 CD
10:44:27.495 设备发送:05 03 06 84 00 04 05 2C
10:44:32.515 设备接收:05 03 08 00 00 1B 43 00 0E 2C AD 7A 7D
10:44:32.531 设备发送:05 03 04 04 00 01 C5 7F
10:44:37.544 设备接收:05 03 02 00 02 C8 45
10:44:37.559 设备发送:05 03 05 84 00 0F 44 AF
10:44:42.574 设备接收:05 03 1E 04 48 00 00 00 00 04 4A 00 00 00 00 04 3C 00 00 00 00 1E 1F 06 04 04 A4 17 8C 06 1E 03 B0 4F 29
10:44:42.592 设备发送:05 03 05 93 00 0F F4 AB
10:44:47.566 设备接收:05 03 1E 17 4B 06 48 03 BF 16 E2 06 37 03 A4 1D B0 06 2B 04 B0 04 46 00 04 00 00 04 43 00 02 00 00 52 4D
10:44:47.582 设备发送:05 03 05 A2 00 0F A5 64
10:44:52.583 设备接收:05 03 1E 00 00 00 00 00 00 00 00 00 00 00 00 00 00 00 00 00 00 00 00 00 00 00 00 00 00 00 00 00 00 69 7B
10:44:52.615 设备发送:05 03 05 B1 00 03 54 A4
10:44:57.619 设备接收:05 03 06 00 00 00 00 00 00 13 B5
10:44:57.636 设备发送:05 03 04 2B 00 01 F4 B6
10:45:02.622 设备接收:05 03 02 02 C6 C8 B6
10:45:02.668 设备发送:05 03 04 20 00 01 85 74
10:45:07.648 设备接收:05 03 02 00 25 88 5F
10:45:07.664 设备发送:05 03 04 05 00 01 94 BF
10:45:12.656 设备接收:05 03 02 00 00 49 84
10:45:12.688 设备发送:06 03 04 84 00 04 04 A7
10:45:17.687 设备接收:06 03 08 13 87 09 FD FF D2 0A 05 02 71
10:45:17.703 设备发送:06 03 04 8D 00 05 15 65
10:45:22.708 设备接收:06 03 0A 09 3B 0E 16 00 00 00 00 00 00 2E A2
10:45:22.724 设备发送:06 03 04 98 00 05 04 A1
10:45:27.737 设备接收:06 03 0A 09 3D 0E 21 00 00 00 00 00 00 43 C1
10:45:27.752 设备发送:06 03 04 A3 00 05 75 6C
10:45:32.773 设备接收:06 03 0A 09 3E 0E 27 00 00 00 00 00 00 31 31
10:45:32.789 设备发送:06 03 06 84 00 04 05 1F
10:45:37.780 设备接收:06 03 08 00 00 0F 06 00 07 50 F8 8B 1F
10:45:37.796 设备发送:06 03 04 04 00 01 C5 4C
10:45:42.807 设备接收:06 03 02 00 02 8C 45
10:45:42.823 设备发送:06 03 05 84 00 0F 44 9C
10:45:47.808 设备接收:06 03 1E 1A 46 06 57 04 43 1A 71 03 1D 02 1C 18 B5 06 3B 03 F1 06 6B 00 08 00 01 00 00 00 00 00 00 22 AA
10:45:47.824 设备发送:06 03 05 93 00 0F F4 98
10:45:52.825 设备接收:06 03 1E 00 00 00 00 00 00 00 00 00 00 00 00 00 00 00 00 00 00 00 00 00 00 00 00 00 00 00 00 00 00 DD 7B
10:45:52.841 设备发送:06 03 05 A2 00 0F A5 57
10:45:57.859 设备接收:06 03 1E 00 00 00 00 00 00 00 00 00 00 00 00 00 00 00 00 00 00 00 00 00 00 00 00 00 00 00 00 00 00 DD 7B
10:45:57.874 设备发送:06 03 05 B1 00 03 54 97
10:46:02.863 设备接收:06 03 06 00 00 00 00 00 00 07 45
10:46:02.879 设备发送:06 03 04 2B 00 01 F4 85
10:46:07.900 设备接收:06 03 02 01 D5 CD 8B
10:46:07.916 设备发送:06 03 04 20 00 01 85 47
10:46:12.915 设备接收:06 03 02 00 20 0C 5C
10:46:12.931 设备发送:06 03 04 05 00 01 94 8C
10:46:17.953 设备接收:06 03 02 00 00 0D 84
10:46:17.968 设备发送:01 03 04 84 00 04 05 10
10:46:22.959 设备接收:01 03 08 13 8B 00 00 00 00 00 00 EF C6
10:46:22.974 设备发送:01 03 04 8D 00 05 14 D2
10:46:27.969 设备接收:01 03 0A 09 04 00 0C 00 00 00 00 00 00 0A 59
10:46:28.017 设备发送:01 03 04 98 00 05 05 16
10:46:33.006 设备接收:01 03 0A 09 00 00 22 00 00 00 00 00 00 F6 9B
10:46:33.022 设备发送:01 03 04 A3 00 05 74 DB
10:46:38.037 设备接收:01 03 0A 09 03 00 1A 00 00 00 00 00 00 5B A8
10:46:38.052 设备发送:01 03 06 84 00 04 04 A8
10:46:43.031 设备接收:01 03 08 00 00 27 96 00 13 CE 53 3E 85
10:46:43.047 设备发送:01 03 04 04 00 01 C4 FB
10:46:48.061 设备接收:01 03 02 00 00 B8 44
10:46:48.093 设备发送:01 03 05 84 00 0F 45 2B
10:46:53.076 设备接收:01 03 1E 1E 43 00 00 00 00 1E 53 00 25 00 1C 1E 44 00 22 00 1B 1E 4E 00 26 00 1D 22 10 00 00 00 00 04 CE
10:46:53.092 设备发送:01 03 05 93 00 0F F5 2F
10:46:58.100 设备接收:01 03 1E 22 0D 00 00 00 00 22 20 00 28 00 23 21 FE 00 10 00 0D 22 01 00 25 00 20 21 E4 00 12 00 0F ED F5
10:46:58.116 设备发送:01 03 05 A2 00 0F A4 E0
10:47:03.115 设备接收:01 03 1E 00 00 00 00 00 00 00 00 00 04 00 00 00 00 00 00 00 00 00 00 00 00 00 00 00 00 00 00 00 00 9D 3E
10:47:03.131 设备发送:01 03 05 B1 00 03 55 20
10:47:08.152 设备接收:01 03 06 00 00 00 00 00 00 21 75
10:47:08.167 设备发送:01 03 04 2B 00 01 F5 32
10:47:13.176 设备接收:01 03 02 02 BB F9 57
10:47:13.191 设备发送:01 03 04 20 00 01 84 F0
10:47:18.179 设备接收:01 03 02 00 22 38 5D
10:47:18.195 设备发送:01 03 04 05 00 01 95 3B
10:47:23.196 设备接收:01 03 02 00 00 B8 44
10:47:23.211 设备发送:02 03 04 84 00 04 05 23
10:47:28.210 设备接收:02 03 08 13 85 0A 5A FF BE 0A 5D C0 8C
10:47:28.225 设备发送:02 03 04 8D 00 05 14 E1
10:47:33.225 设备接收:02 03 0A 09 27 0E BC 00 00 00 00 00 00 B2 EC
10:47:33.256 设备发送:02 03 04 98 00 05 05 25
10:47:38.253 设备接收:02 03 0A 09 29 0E CF 00 00 00 00 00 00 BC 4B
10:47:38.268 设备发送:02 03 04 A3 00 05 74 E8
10:47:43.280 设备接收:02 03 0A 09 1D 0E C6 00 00 00 00 00 00 43 8A
10:47:43.296 设备发送:02 03 06 84 00 04 04 9B
10:47:48.285 设备接收:02 03 08 00 00 0F C7 00 07 4E AC AB A1
10:47:48.318 设备发送:02 03 04 04 00 01 C4 C8
10:47:53.316 设备接收:02 03 02 00 02 7D 85
10:47:53.332 设备发送:02 03 05 84 00 06 85 1E
10:47:58.323 设备接收:02 03 0C 1D 86 03 38 02 6F 1D 1F 03 2E 02 5F 21 5C
10:47:58.371 设备发送:02 03 05 8A 00 06 E4 DD
10:48:03.350 设备接收:02 03 0C 1D 89 03 3A 02 70 14 E7 06 79 03 77 F7 36
10:48:03.397 设备发送:02 03 05 90 00 06 C5 1A
10:48:08.377 设备接收:02 03 0C 00 00 00 00 00 00 00 00 00 00 00 00 D0 71
10:48:08.393 设备发送:02 03 05 96 00 06 25 1B
10:48:13.390 设备接收:02 03 0C 00 00 00 00 00 00 00 00 00 00 00 00 D0 71
10:48:13.405 设备发送:02 03 05 9C 00 06 05 19
10:48:18.402 设备接收:02 03 0C 00 00 00 00 00 00 00 00 00 00 00 00 D0 71
10:48:18.433 设备发送:02 03 05 A2 00 06 64 D5
10:48:23.448 设备接收:02 03 0C 00 00 00 00 00 00 00 00 00 00 00 00 D0 71
10:48:23.464 设备发送:02 03 05 A8 00 06 44 D7
10:48:28.442 设备接收:02 03 0C 00 00 00 00 00 00 00 00 00 00 00 00 D0 71
10:48:28.473 设备发送:02 03 05 AE 00 06 A4 D6
10:48:33.471 设备接收:02 03 0C 00 00 00 00 00 00 00 00 00 00 00 00 D0 71
10:48:33.486 设备发送:02 03 04 2B 00 01 F5 01
10:48:38.484 设备接收:02 03 02 01 CB BC 43
10:48:38.515 设备发送:02 03 04 20 00 01 84 C3
10:48:43.534 设备接收:02 03 02 00 27 BC 5E
10:48:43.550 设备发送:02 03 04 05 00 01 95 08
10:48:48.559 设备接收:02 03 02 00 00 FC 44
10:48:48.574 设备发送:03 03 04 84 00 04 04 F2
10:48:53.570 设备接收:03 03 08 13 86 04 A2 00 01 04 A4 92 58
10:48:53.601 设备发送:03 03 04 8D 00 05 15 30
10:48:58.579 设备接收:03 03 0A 09 33 06 8C 00 00 00 00 00 00 7E C8
10:48:58.653 设备发送:03 03 04 98 00 05 04 F4
10:49:03.593 设备接收:03 03 0A 09 33 06 90 00 00 00 00 00 00 A3 09
10:49:03.608 设备发送:03 03 04 A3 00 05 75 39
10:49:08.621 设备接收:03 03 0A 09 42 06 94 00 00 00 00 00 00 8E 9B
10:49:08.636 设备发送:03 03 06 84 00 04 05 4A
10:49:13.644 设备接收:03 03 08 00 00 07 96 00 03 60 7A 8E 26
10:49:13.659 设备发送:03 03 04 04 00 01 C5 19
10:49:18.667 设备接收:03 03 02 00 02 40 45
10:49:18.682 设备发送:03 03 05 84 00 06 84 CF
10:49:23.680 设备接收:03 03 0C 1D 10 03 36 02 63 1D 0B 03 31 02 5F 82 73
10:49:23.714 设备发送:03 03 05 8A 00 06 E5 0C
10:49:28.699 设备接收:03 03 0C 00 0B 00 01 00 00 00 00 00 00 00 00 39 C5
10:49:28.714 设备发送:03 03 05 90 00 06 C4 CB
10:49:33.727 设备接收:03 03 0C 00 00 00 00 00 00 00 00 00 00 00 00 11 71
10:49:33.743 设备发送:03 03 05 96 00 06 24 CA
10:49:38.727 设备接收:03 03 0C 00 00 00 00 00 00 00 00 00 00 00 00 11 71
10:49:38.742 设备发送:03 03 05 9C 00 06 04 C8
10:49:43.776 设备接收:03 03 0C 00 00 00 00 00 00 00 00 00 00 00 00 11 71
10:49:43.792 设备发送:03 03 05 A2 00 06 65 04
10:49:48.765 设备接收:03 03 0C 00 00 00 00 00 00 00 00 00 00 00 00 11 71
10:49:48.797 设备发送:03 03 05 A8 00 06 45 06
10:49:53.807 设备接收:03 03 0C 00 00 00 00 00 00 00 00 00 00 00 00 11 71
10:49:53.822 设备发送:03 03 05 AE 00 06 A5 07
10:49:58.820 设备接收:03 03 0C 00 00 00 00 00 00 00 00 00 00 00 00 11 71
10:49:58.836 设备发送:03 03 04 2B 00 01 F4 D0
10:50:03.847 设备接收:03 03 02 02 65 00 CF
10:50:03.879 设备发送:03 03 04 20 00 01 85 12
10:50:08.864 设备接收:03 03 02 00 19 00 4E
10:50:08.880 设备发送:03 03 04 05 00 01 94 D9
10:50:13.892 设备接收:03 03 02 00 00 C1 84
10:50:13.907 设备发送:04 03 04 84 00 04 05 45
10:50:18.902 设备接收:04 03 08 13 88 0B BA FF DE 0B BA C3 07
10:50:18.917 设备发送:04 03 04 8D 00 05 14 87
10:50:23.923 设备接收:04 03 0A 09 1B 10 C8 00 00 00 00 00 00 0E AC
10:50:23.939 设备发送:04 03 04 98 00 05 05 43
10:50:28.924 设备接收:04 03 0A 09 1A 10 D6 00 00 00 00 00 00 FD 3D
10:50:28.940 设备发送:04 03 04 A3 00 05 74 8E
10:50:33.975 设备接收:04 03 0A 09 20 10 F2 00 00 00 00 00 00 B3 9E
10:50:33.991 设备发送:04 03 06 84 00 04 04 FD
10:50:38.975 设备接收:04 03 08 00 00 0C 4C 00 08 21 A6 8C F1
10:50:39.006 设备发送:04 03 04 04 00 01 C4 AE
10:50:43.991 设备接收:04 03 02 00 02 F5 85
10:50:44.007 设备发送:04 03 05 84 00 0F 45 7E
10:50:49.029 设备发送:04 03 05 84 00 0F 45 7E
10:50:54.047 设备接收:04 03 1E 03 FD 00 04 00 00 03 EF 00 00 00 00 18 A0 06 52 03 FC 17 3A 03 28 01 E0 03 FC 00 00 00 00 73 9C
10:50:54.063 设备发送:04 03 05 93 00 0F F5 7A
10:50:59.058 设备接收:04 03 1E 1A 1D 03 1B 02 13 1A 1B 03 2A 02 1D 1B B8 03 2C 02 40 03 FF 00 00 00 00 03 FD 00 00 00 00 C5 46
10:50:59.074 设备发送:04 03 05 A2 00 0F A4 B5
10:51:04.088 设备接收:04 03 1E 00 09 00 00 00 00 00 09 00 02 00 00 00 00 00 00 00 00 00 00 00 00 00 00 00 00 00 00 00 00 4D 6C
10:51:04.103 设备发送:04 03 05 B1 00 03 55 75
10:51:09.116 设备接收:04 03 06 00 00 00 00 00 00 1E 25
10:51:09.131 设备发送:04 03 04 2B 00 01 F5 67
10:51:14.130 设备接收:04 03 02 02 E0 74 AC
10:51:14.145 设备发送:04 03 04 20 00 01 84 A5
10:51:19.135 设备接收:04 03 02 00 36 F4 52
10:51:19.151 设备发送:04 03 04 05 00 01 95 6E
10:51:24.154 设备接收:04 03 02 00 00 74 44
10:51:24.201 设备发送:05 03 04 84 00 04 04 94
10:51:29.188 设备接收:05 03 08 13 8C 14 37 00 15 14 37 25 F4
10:51:29.203 设备发送:05 03 04 8D 00 05 15 56
10:51:34.197 设备接收:05 03 0A 09 2C 1C BF 00 00 00 00 00 00 79 4E
10:51:34.213 设备发送:05 03 04 98 00 05 04 92
10:51:39.231 设备接收:05 03 0A 09 1F 1C C0 00 00 00 00 00 00 B7 78
10:51:39.247 设备发送:05 03 04 A3 00 05 75 5F
10:51:44.233 设备接收:05 03 0A 09 34 1C CD 00 00 00 00 00 00 81 49
10:51:44.249 设备发送:05 03 06 84 00 04 05 2C
10:51:49.260 设备接收:05 03 08 00 00 1D AE 00 0E 2C EB 57 FE
10:51:49.276 设备发送:05 03 04 04 00 01 C5 7F
10:51:54.282 设备接收:05 03 02 00 02 C8 45
10:51:54.313 设备发送:05 03 05 84 00 0F 44 AF
10:51:59.311 设备接收:05 03 1E 04 47 00 00 00 00 04 4A 00 00 00 00 04 3C 00 02 00 00 1E 20 06 3B 04 CE 17 6D 06 61 03 D3 50 27
10:51:59.326 设备发送:05 03 05 93 00 0F F4 AB
10:52:04.314 设备接收:05 03 1E 17 98 06 6B 03 E0 16 E5 06 6A 03 C2 1D 8A 06 68 04 D8 04 48 00 05 00 00 04 41 00 02 00 00 F1 6D
10:52:04.345 设备发送:05 03 05 A2 00 0F A5 64
10:52:09.335 设备接收:05 03 1E 00 00 00 00 00 00 00 00 00 00 00 00 00 00 00 00 00 00 00 00 00 00 00 00 00 00 00 00 00 00 69 7B
10:52:09.351 设备发送:05 03 05 B1 00 03 54 A4
10:52:14.349 设备接收:05 03 06 00 00 00 00 00 00 13 B5
10:52:14.370 设备发送:05 03 04 2B 00 01 F4 B6
10:52:19.382 设备接收:05 03 02 02 C6 C8 B6
10:52:19.397 设备发送:05 03 04 20 00 01 85 74
10:52:24.386 设备接收:05 03 02 00 23 08 5D
10:52:24.418 设备发送:05 03 04 05 00 01 94 BF
10:52:29.452 设备接收:05 03 02 00 00 49 84
10:52:29.467 设备发送:06 03 04 84 00 04 04 A7
10:52:34.471 设备接收:06 03 08 13 8A 0A 4C FF BA 0A 56 63 79
10:52:34.486 设备发送:06 03 04 8D 00 05 15 65
10:52:39.446 设备接收:06 03 0A 09 45 0E 77 00 00 00 00 00 00 77 C6
10:52:39.478 设备发送:06 03 04 98 00 05 04 A1
10:52:44.487 设备接收:06 03 0A 09 45 0E 79 00 00 00 00 00 00 98 06
10:52:44.503 设备发送:06 03 04 A3 00 05 75 6C
10:52:49.513 设备接收:06 03 0A 09 43 0E 7F 00 00 00 00 00 00 D5 A6
10:52:49.529 设备发送:06 03 06 84 00 04 05 1F
10:52:54.533 设备接收:06 03 08 00 00 10 43 00 07 51 18 44 A7
10:52:54.548 设备发送:06 03 04 04 00 01 C5 4C
10:52:59.546 设备接收:06 03 02 00 02 8C 45
10:52:59.561 设备发送:06 03 05 84 00 0F 44 9C
10:53:04.570 设备接收:06 03 1E 1A 4F 06 81 04 61 1A 1F 03 37 02 26 18 AE 06 5F 04 07 04 16 00 03 00 00 00 00 00 00 00 00 7E 39
10:53:04.585 设备发送:06 03 05 93 00 0F F4 98
10:53:09.600 设备接收:06 03 1E 00 00 00 00 00 00 00 00 00 00 00 00 00 00 00 00 00 00 00 00 00 00 00 00 00 00 00 00 00 00 DD 7B
10:53:09.677 设备发送:06 03 05 A2 00 0F A5 57
10:53:14.642 设备接收:06 03 1E 00 00 00 00 00 00 00 00 00 00 00 00 00 00 00 00 00 00 00 00 00 00 00 00 00 00 00 00 00 00 DD 7B
10:53:14.657 设备发送:06 03 05 B1 00 03 54 97
10:53:19.628 设备接收:06 03 06 00 00 00 00 00 00 07 45
10:53:19.660 设备发送:06 03 04 2B 00 01 F4 85
10:53:24.677 设备接收:06 03 02 01 D5 CD 8B
10:53:24.709 设备发送:06 03 04 20 00 01 85 47
10:53:29.687 设备接收:06 03 02 00 21 CD 9C
10:53:29.703 设备发送:06 03 04 05 00 01 94 8C
10:53:34.706 设备接收:06 03 02 00 00 0D 84
10:53:34.722 设备发送:01 03 04 84 00 04 05 10
10:53:39.730 设备接收:01 03 08 13 88 00 00 00 00 00 00 DC C6
10:53:39.761 设备发送:01 03 04 8D 00 05 14 D2
10:53:44.748 设备接收:01 03 0A 08 FB 00 0B 00 00 00 00 00 00 68 A8
10:53:44.779 设备发送:01 03 04 98 00 05 05 16
10:53:49.778 设备接收:01 03 0A 09 05 00 21 00 00 00 00 00 00 FA CB
10:53:49.794 设备发送:01 03 04 A3 00 05 74 DB
10:53:54.785 设备接收:01 03 0A 09 0C 00 19 00 00 00 00 00 00 29 58
10:53:54.800 设备发送:01 03 06 84 00 04 04 A8
10:53:59.809 设备接收:01 03 08 00 00 27 96 00 13 CE 53 3E 85
10:53:59.840 设备发送:01 03 04 04 00 01 C4 FB
10:54:04.818 设备接收:01 03 02 00 00 B8 44
10:54:04.833 设备发送:01 03 05 84 00 0F 45 2B
10:54:09.836 设备接收:01 03 1E 1E 2B 00 00 00 00 1E 3B 00 23 00 1B 1E 28 00 21 00 19 1E 2F 00 28 00 1E 21 FB 00 00 00 00 16 F1
10:54:09.868 设备发送:01 03 05 93 00 0F F5 2F
10:54:14.850 设备接收:01 03 1E 21 FA 00 00 00 00 22 04 00 26 00 21 21 F2 00 11 00 0F 21 F9 00 23 00 1F 21 E6 00 13 00 11 F2 45
10:54:14.881 设备发送:01 03 05 A2 00 0F A4 E0
10:54:19.900 设备接收:01 03 1E 00 00 00 00 00 00 00 00 00 04 00 00 00 00 00 00 00 00 00 00 00 00 00 00 00 00 00 00 00 00 9D 3E
10:54:19.916 设备发送:01 03 05 B1 00 03 55 20
10:54:24.891 设备接收:01 03 06 00 00 00 00 00 00 21 75
10:54:24.938 设备发送:01 03 04 2B 00 01 F5 32
10:54:29.936 设备接收:01 03 02 02 BB F9 57
10:54:29.953 设备发送:01 03 04 20 00 01 84 F0
10:54:34.937 设备接收:01 03 02 00 1F F9 8C
10:54:34.968 设备发送:01 03 04 05 00 01 95 3B
10:54:39.956 设备接收:01 03 02 00 00 B8 44
10:54:39.988 设备发送:02 03 04 84 00 04 05 23
10:54:44.975 设备接收:02 03 08 13 8B 0A A9 FF BD 0A AD DB 1D
10:54:44.990 设备发送:02 03 04 8D 00 05 14 E1
10:54:50.014 设备接收:02 03 0A 09 2C 0F 28 00 00 00 00 00 00 D5 D9
10:54:50.030 设备发送:02 03 04 98 00 05 05 25
10:54:55.018 设备接收:02 03 0A 09 2D 0F 34 00 00 00 00 00 00 05 88
10:54:55.048 设备发送:02 03 04 A3 00 05 74 E8
10:55:00.061 设备接收:02 03 0A 09 22 0F 32 00 00 00 00 00 00 22 78
10:55:00.076 设备发送:02 03 06 84 00 04 04 9B
10:55:05.062 设备接收:02 03 08 00 00 11 0D 00 07 4E CD F1 E7
10:55:05.078 设备发送:02 03 04 04 00 01 C4 C8
10:55:10.080 设备接收:02 03 02 00 02 7D 85
10:55:10.096 设备发送:02 03 05 84 00 06 85 1E
10:55:15.115 设备接收:02 03 0C 1D 60 03 57 02 83 1D 48 03 40 02 6F B8 2E
10:55:15.131 设备发送:02 03 05 8A 00 06 E4 DD
10:55:20.131 设备接收:02 03 0C 1D 89 03 51 02 82 15 38 06 96 03 94 1B B5
10:55:20.146 设备发送:02 03 05 90 00 06 C5 1A
10:55:25.137 设备接收:02 03 0C 00 00 00 00 00 00 00 00 00 00 00 00 D0 71
10:55:25.153 设备发送:02 03 05 96 00 06 25 1B
10:55:30.160 设备接收:02 03 0C 00 00 00 00 00 00 00 00 00 00 00 00 D0 71
10:55:30.190 设备发送:02 03 05 9C 00 06 05 19
10:55:35.194 设备接收:02 03 0C 00 00 00 00 00 00 00 00 00 00 00 00 D0 71
10:55:35.209 设备发送:02 03 05 A2 00 06 64 D5
10:55:40.224 设备接收:02 03 0C 00 00 00 00 00 00 00 00 00 00 00 00 D0 71
10:55:40.240 设备发送:02 03 05 A8 00 06 44 D7
10:55:45.228 设备接收:02 03 0C 00 00 00 00 00 00 00 00 00 00 00 00 D0 71
10:55:45.259 设备发送:02 03 05 AE 00 06 A4 D6
10:55:50.230 设备接收:02 03 0C 00 00 00 00 00 00 00 00 00 00 00 00 D0 71
10:55:50.262 设备发送:02 03 04 2B 00 01 F5 01
10:55:55.274 设备接收:02 03 02 01 CB BC 43
10:55:55.304 设备发送:02 03 04 20 00 01 84 C3
10:56:00.278 设备接收:02 03 02 00 29 3D 9A
10:56:00.294 设备发送:02 03 04 05 00 01 95 08
10:56:05.303 设备接收:02 03 02 00 00 FC 44
10:56:05.318 设备发送:03 03 04 84 00 04 04 F2
10:56:10.331 设备接收:03 03 08 13 89 04 BE 00 00 04 C1 2D 71
10:56:10.349 设备发送:03 03 04 8D 00 05 15 30
10:56:15.337 设备接收:03 03 0A 09 38 06 AF 00 00 00 00 00 00 1F 3A
10:56:15.356 设备发送:03 03 04 98 00 05 04 F4
10:56:20.341 设备接收:03 03 0A 09 38 06 B5 00 00 00 00 00 00 A4 FB
10:56:20.371 设备发送:03 03 04 A3 00 05 75 39
10:56:25.386 设备接收:03 03 0A 09 43 06 BD 00 00 00 00 00 00 3B C9
10:56:25.403 设备发送:03 03 06 84 00 04 05 4A
10:56:30.409 设备接收:03 03 08 00 00 08 29 00 03 60 89 DB 47
10:56:30.428 设备发送:03 03 04 04 00 01 C5 19
10:56:35.432 设备接收:03 03 02 00 02 40 45
10:56:35.452 设备发送:03 03 05 84 00 06 84 CF
10:56:40.443 设备接收:03 03 0C 1D 38 03 48 02 74 1D 0B 03 43 02 6D 6C BE
10:56:40.459 设备发送:03 03 05 8A 00 06 E5 0C
10:56:45.479 设备接收:03 03 0C 00 0B 00 01 00 00 00 00 00 00 00 00 39 C5
10:56:45.496 设备发送:03 03 05 90 00 06 C4 CB
10:56:50.490 设备接收:03 03 0C 00 00 00 00 00 00 00 00 00 00 00 00 11 71
10:56:50.506 设备发送:03 03 05 96 00 06 24 CA
10:56:55.511 设备接收:03 03 0C 00 00 00 00 00 00 00 00 00 00 00 00 11 71
10:56:55.527 设备发送:03 03 05 9C 00 06 04 C8
10:57:00.517 设备接收:03 03 0C 00 00 00 00 00 00 00 00 00 00 00 00 11 71
10:57:00.533 设备发送:03 03 05 A2 00 06 65 04
10:57:05.536 设备接收:03 03 0C 00 00 00 00 00 00 00 00 00 00 00 00 11 71
10:57:05.552 设备发送:03 03 05 A8 00 06 45 06
10:57:10.555 设备接收:03 03 0C 00 00 00 00 00 00 00 00 00 00 00 00 11 71
10:57:10.570 设备发送:03 03 05 AE 00 06 A5 07
10:57:15.600 设备接收:03 03 0C 00 00 00 00 00 00 00 00 00 00 00 00 11 71
10:57:15.616 设备发送:03 03 04 2B 00 01 F4 D0
10:57:20.607 设备接收:03 03 02 02 65 00 CF
10:57:20.622 设备发送:03 03 04 20 00 01 85 12
10:57:25.621 设备接收:03 03 02 00 19 00 4E
10:57:25.637 设备发送:03 03 04 05 00 01 94 D9
10:57:30.632 设备接收:03 03 02 00 00 C1 84
10:57:30.648 设备发送:04 03 04 84 00 04 05 45
10:57:35.638 设备接收:04 03 08 13 89 0B ED FF AF 0B EE F7 EF
10:57:35.670 设备发送:04 03 04 8D 00 05 14 87
10:57:40.683 设备接收:04 03 0A 09 26 11 34 00 00 00 00 00 00 FF FE
10:57:40.699 设备发送:04 03 04 98 00 05 05 43
10:57:45.691 设备接收:04 03 0A 09 20 11 29 00 00 00 00 00 00 19 5F
10:57:45.707 设备发送:04 03 04 A3 00 05 74 8E
10:57:50.713 设备接收:04 03 0A 09 2D 11 39 00 00 00 00 00 00 50 0E
10:57:50.735 设备发送:04 03 06 84 00 04 04 FD
10:57:55.733 设备接收:04 03 08 00 00 0D BD 00 08 21 CB 31 18
10:57:55.749 设备发送:04 03 04 04 00 01 C4 AE
10:58:00.771 设备接收:04 03 02 00 02 F5 85
10:58:00.786 设备发送:04 03 05 84 00 0F 45 7E
10:58:05.816 设备发送:04 03 05 84 00 0F 45 7E
10:58:10.807 设备接收:04 03 1E 03 FF 00 03 00 00 03 F2 00 00 00 00 18 9F 06 74 04 11 17 39 03 3C 01 EC 03 FE 00 00 00 00 F0 9F
10:58:10.839 设备发送:04 03 05 93 00 0F F5 7A
10:58:15.826 设备发送:04 03 05 93 00 0F F5 7A
10:58:20.848 设备接收:04 03 1E 1A 49 03 26 02 1E 1A 48 03 38 02 2B 1B BB 03 3F 02 4E 04 03 00 00 00 00 04 02 00 00 00 00 A2 38
10:58:20.864 设备发送:04 03 05 A2 00 0F A4 B5
10:58:25.854 设备接收:04 03 1E 00 09 00 00 00 00 00 08 00 02 00 00 00 00 00 00 00 00 00 00 00 00 00 00 00 00 00 00 00 00 80 F0
10:58:25.885 设备发送:04 03 05 B1 00 03 55 75
10:58:30.896 设备接收:04 03 06 00 00 00 00 00 00 1E 25
10:58:30.911 设备发送:04 03 04 2B 00 01 F5 67
10:58:35.927 设备接收:04 03 02 02 E0 74 AC
10:58:35.943 设备发送:04 03 04 20 00 01 84 A5
10:58:40.944 设备接收:04 03 02 00 24 74 5F
10:58:40.960 设备发送:04 03 04 05 00 01 95 6E
10:58:45.939 设备接收:04 03 02 00 00 74 44
10:58:45.954 设备发送:05 03 04 84 00 04 04 94
10:58:50.971 设备接收:05 03 08 13 8B 14 C3 00 15 14 C4 A2 A4
10:58:50.987 设备发送:05 03 04 8D 00 05 15 56
10:58:55.975 设备接收:05 03 0A 09 30 1D 71 00 00 00 00 00 00 0F 8E
10:58:55.991 设备发送:05 03 04 98 00 05 04 92
10:59:01.015 设备接收:05 03 0A 09 2A 1D 59 00 00 00 00 00 00 14 EC
10:59:01.031 设备发送:05 03 04 A3 00 05 75 5F
10:59:06.022 设备接收:05 03 0A 09 3C 1D 5B 00 00 00 00 00 00 D1 4C
10:59:06.054 设备发送:05 03 06 84 00 04 05 2C
10:59:11.032 设备接收:05 03 08 00 00 20 2D 00 0E 2D 2B 17 0D
10:59:11.095 设备发送:05 03 04 04 00 01 C5 7F
10:59:16.064 设备接收:05 03 02 00 02 C8 45
10:59:16.096 设备发送:05 03 05 84 00 0F 44 AF
10:59:21.092 设备接收:05 03 1E 04 46 00 00 00 00 04 48 00 00 00 00 04 3A 00 00 00 00 1E 1E 06 58 04 E4 17 6B 06 7E 03 E4 6C 37
10:59:21.107 设备发送:05 03 05 93 00 0F F4 AB
10:59:26.100 设备接收:05 03 1E 17 95 06 89 03 F2 16 B8 06 93 03 D2 1D 5E 06 89 04 EA 04 45 00 05 00 00 04 40 00 01 00 00 9A A5
10:59:26.116 设备发送:05 03 05 A2 00 0F A5 64
10:59:31.130 设备接收:05 03 1E 00 00 00 00 00 00 00 00 00 00 00 00 00 00 00 00 00 00 00 00 00 00 00 00 00 00 00 00 00 00 69 7B
10:59:31.145 设备发送:05 03 05 B1 00 03 54 A4
10:59:36.165 设备接收:05 03 06 00 00 00 00 00 00 13 B5
10:59:36.181 设备发送:05 03 04 2B 00 01 F4 B6
10:59:41.160 设备接收:05 03 02 02 C6 C8 B6
10:59:41.206 设备发送:05 03 04 20 00 01 85 74
10:59:46.202 设备接收:05 03 02 00 23 08 5D
10:59:46.218 设备发送:05 03 04 05 00 01 94 BF
10:59:51.232 设备接收:05 03 02 00 00 49 84
10:59:51.248 设备发送:06 03 04 84 00 04 04 A7
10:59:56.233 设备接收:06 03 08 13 87 0A 8E FF E6 0A 96 06 2A
10:59:56.248 设备发送:06 03 04 8D 00 05 15 65
11:00:01.260 设备接收:06 03 0A 09 44 0E CC 00 00 00 00 00 00 71 5D
11:00:01.276 设备发送:06 03 04 98 00 05 04 A1
11:00:06.277 设备接收:06 03 0A 09 48 0E CE 00 00 00 00 00 00 07 9D
11:00:06.309 设备发送:06 03 04 A3 00 05 75 6C
11:00:11.301 设备接收:06 03 0A 09 48 0E D4 00 00 00 00 00 00 BC 5C
11:00:11.316 设备发送:06 03 06 84 00 04 05 1F
11:00:16.320 设备接收:06 03 08 00 00 11 8A 00 07 51 38 98 BE
11:00:16.336 设备发送:06 03 04 04 00 01 C5 4C
11:00:21.331 设备接收:06 03 02 00 02 8C 45
11:00:21.348 设备发送:06 03 05 84 00 0F 44 9C
11:00:26.344 设备接收:06 03 1E 1A 26 06 B2 04 7B 1A 1F 03 4D 02 35 18 AF 06 8C 04 23 05 B9 00 02 00 00 00 00 00 00 00 00 CB 12
11:00:26.360 设备发送:06 03 05 93 00 0F F4 98
11:00:31.404 设备接收:06 03 1E 00 00 00 00 00 00 00 00 00 00 00 00 00 00 00 00 00 00 00 00 00 00 00 00 00 00 00 00 00 00 DD 7B
11:00:31.419 设备发送:06 03 05 A2 00 0F A5 57
11:00:36.414 设备接收:06 03 1E 00 00 00 00 00 00 00 00 00 00 00 00 00 00 00 00 00 00 00 00 00 00 00 00 00 00 00 00 00 00 DD 7B
11:00:36.429 设备发送:06 03 05 B1 00 03 54 97
11:00:41.453 设备接收:06 03 06 00 00 00 00 00 00 07 45
11:00:41.469 设备发送:06 03 04 2B 00 01 F4 85
11:00:46.449 设备接收:06 03 02 01 D5 CD 8B
11:00:46.481 设备发送:06 03 04 20 00 01 85 47
11:00:51.488 设备接收:06 03 02 00 22 8D 9D
11:00:51.503 设备发送:06 03 04 05 00 01 94 8C
11:00:56.506 设备接收:06 03 02 00 00 0D 84
11:00:56.522 设备发送:01 03 04 84 00 04 05 10
11:01:01.539 设备接收:01 03 08 13 85 00 00 00 00 00 00 00 06
11:01:01.555 设备发送:01 03 04 8D 00 05 14 D2
11:01:06.539 设备接收:01 03 0A 09 00 00 0B 00 00 00 00 00 00 4E 59
11:01:06.554 设备发送:01 03 04 98 00 05 05 16
11:01:11.571 设备接收:01 03 0A 08 FE 00 21 00 00 00 00 00 00 DC 3A
11:01:11.587 设备发送:01 03 04 A3 00 05 74 DB
11:01:16.606 设备接收:01 03 0A 09 0D 00 19 00 00 00 00 00 00 24 C8
11:01:16.622 设备发送:01 03 06 84 00 04 04 A8
11:01:21.589 设备接收:01 03 08 00 00 27 96 00 13 CE 53 3E 85
11:01:21.634 设备发送:01 03 04 04 00 01 C4 FB
11:01:26.625 设备接收:01 03 02 00 00 B8 44
11:01:26.641 设备发送:01 03 05 84 00 0F 45 2B
11:01:31.671 设备接收:01 03 1E 1E 1C 00 00 00 00 1E 22 00 25 00 1D 1E 13 00 21 00 1A 1E 1B 00 28 00 1F 21 F1 00 00 00 00 DB 07
11:01:31.687 设备发送:01 03 05 93 00 0F F5 2F
11:01:36.656 设备接收:01 03 1E 21 E9 00 00 00 00 21 F6 00 27 00 22 21 DD 00 10 00 0E 21 DB 00 23 00 1E 21 D6 00 13 00 11 8F 0C
11:01:36.687 设备发送:01 03 05 A2 00 0F A4 E0
11:01:41.693 设备接收:01 03 1E 00 00 00 00 00 00 00 00 00 04 00 00 00 00 00 00 00 00 00 00 00 00 00 00 00 00 00 00 00 00 9D 3E
11:01:41.706 设备发送:01 03 05 B1 00 03 55 20
11:01:46.701 设备接收:01 03 06 00 00 00 00 00 00 21 75
11:01:46.717 设备发送:01 03 04 2B 00 01 F5 32
11:01:51.729 设备接收:01 03 02 02 BB F9 57
11:01:51.761 设备发送:01 03 04 20 00 01 84 F0
11:01:56.732 设备接收:01 03 02 00 1C B9 8D
11:01:56.779 设备发送:01 03 04 05 00 01 95 3B
11:02:01.769 设备接收:01 03 02 00 00 B8 44
11:02:01.798 设备发送:02 03 04 84 00 04 05 23
11:02:06.786 设备接收:02 03 08 13 86 0A BD FF BC 0A C2 26 32
11:02:06.801 设备发送:02 03 04 8D 00 05 14 E1
11:02:11.816 设备接收:02 03 0A 09 2D 0F 40 00 00 00 00 00 00 31 8F
11:02:11.831 设备发送:02 03 04 98 00 05 05 25
11:02:16.836 设备接收:02 03 0A 09 2F 0F 5D 00 00 00 00 00 00 E5 EE
11:02:16.852 设备发送:02 03 04 A3 00 05 74 E8
11:02:21.857 设备接收:02 03 0A 09 1D 0F 5B 00 00 00 00 00 00 CE 8F
11:02:21.872 设备发送:02 03 06 84 00 04 04 9B
11:02:26.874 设备接收:02 03 08 00 00 12 5C 00 07 4E EE 4D C1
11:02:26.890 设备发送:02 03 04 04 00 01 C4 C8
11:02:31.895 设备接收:02 03 02 00 02 7D 85
11:02:31.910 设备发送:02 03 05 84 00 06 85 1E
11:02:36.919 设备接收:02 03 0C 1D 61 03 64 02 8C 1D 49 03 49 02 76 2F 2B
11:02:36.935 设备发送:02 03 05 8A 00 06 E4 DD
11:02:41.912 设备接收:02 03 0C 1D 38 03 63 02 88 15 37 06 A7 03 9D 6B 22
11:02:41.959 设备发送:02 03 05 90 00 06 C5 1A
11:02:46.964 设备接收:02 03 0C 00 00 00 00 00 00 00 00 00 00 00 00 D0 71
11:02:46.980 设备发送:02 03 05 96 00 06 25 1B
11:02:51.967 设备接收:02 03 0C 00 00 00 00 00 00 00 00 00 00 00 00 D0 71
11:02:51.998 设备发送:02 03 05 9C 00 06 05 19
11:02:56.995 设备接收:02 03 0C 00 00 00 00 00 00 00 00 00 00 00 00 D0 71
11:02:57.010 设备发送:02 03 05 A2 00 06 64 D5
11:03:01.998 设备接收:02 03 0C 00 00 00 00 00 00 00 00 00 00 00 00 D0 71
11:03:02.014 设备发送:02 03 05 A8 00 06 44 D7
11:03:07.026 设备接收:02 03 0C 00 00 00 00 00 00 00 00 00 00 00 00 D0 71
11:03:07.042 设备发送:02 03 05 AE 00 06 A4 D6
11:03:12.060 设备接收:02 03 0C 00 00 00 00 00 00 00 00 00 00 00 00 D0 71
11:03:12.075 设备发送:02 03 04 2B 00 01 F5 01
11:03:17.065 设备接收:02 03 02 01 CB BC 43
11:03:17.080 设备发送:02 03 04 20 00 01 84 C3
11:03:22.106 设备接收:02 03 02 00 2A 7D 9B
11:03:22.121 设备发送:02 03 04 05 00 01 95 08
11:03:27.088 设备接收:02 03 02 00 00 FC 44
11:03:27.118 设备发送:03 03 04 84 00 04 04 F2
11:03:32.121 设备接收:03 03 08 13 85 04 D8 00 00 04 DA A9 72
11:03:32.136 设备发送:03 03 04 8D 00 05 15 30
11:03:37.148 设备接收:03 03 0A 09 36 06 D6 00 00 00 00 00 00 BB 9D
11:03:37.178 设备发送:03 03 04 98 00 05 04 F4
11:03:42.167 设备接收:03 03 0A 09 3B 06 DC 00 00 00 00 00 00 49 0D
11:03:42.182 设备发送:03 03 04 A3 00 05 75 39
11:03:47.186 设备发送:03 03 06 84 00 04 05 4A
11:03:47.202 设备接收:03 03 0A 09 47 06 E5 00 00 00 00 00 00 D0 CC
11:03:52.200 设备接收:03 03 08 00 00 08 C0 00 03 60 98 46 9C
11:03:52.216 设备发送:03 03 04 04 00 01 C5 19
11:03:54.00400

